==============================================================
Vitis HLS - High-Level Synthesis from C, C++ and OpenCL v2020.2 (64-bit)
Copyright 1986-2020 Xilinx, Inc. All Rights Reserved.
==============================================================
==============================================================
Vitis HLS - High-Level Synthesis from C, C++ and OpenCL v2020.2 (64-bit)
Copyright 1986-2020 Xilinx, Inc. All Rights Reserved.
==============================================================
==============================================================
Vitis HLS - High-Level Synthesis from C, C++ and OpenCL v2020.2 (64-bit)
Copyright 1986-2020 Xilinx, Inc. All Rights Reserved.
==============================================================
==============================================================
Vitis HLS - High-Level Synthesis from C, C++ and OpenCL v2020.2 (64-bit)
Copyright 1986-2020 Xilinx, Inc. All Rights Reserved.
==============================================================
==============================================================
Vitis HLS - High-Level Synthesis from C, C++ and OpenCL v2020.2 (64-bit)
Copyright 1986-2020 Xilinx, Inc. All Rights Reserved.
==============================================================
==============================================================
Vitis HLS - High-Level Synthesis from C, C++ and OpenCL v2020.2 (64-bit)
Copyright 1986-2020 Xilinx, Inc. All Rights Reserved.
==============================================================
==============================================================
Vitis HLS - High-Level Synthesis from C, C++ and OpenCL v2020.2 (64-bit)
Copyright 1986-2020 Xilinx, Inc. All Rights Reserved.
==============================================================
==============================================================
Vitis HLS - High-Level Synthesis from C, C++ and OpenCL v2020.2 (64-bit)
Copyright 1986-2020 Xilinx, Inc. All Rights Reserved.
==============================================================
==============================================================
Vitis HLS - High-Level Synthesis from C, C++ and OpenCL v2020.2 (64-bit)
Copyright 1986-2020 Xilinx, Inc. All Rights Reserved.
==============================================================
==============================================================
Vitis HLS - High-Level Synthesis from C, C++ and OpenCL v2020.2 (64-bit)
Copyright 1986-2020 Xilinx, Inc. All Rights Reserved.
==============================================================
==============================================================
Vitis HLS - High-Level Synthesis from C, C++ and OpenCL v2020.2 (64-bit)
Copyright 1986-2020 Xilinx, Inc. All Rights Reserved.
==============================================================
==============================================================
Vitis HLS - High-Level Synthesis from C, C++ and OpenCL v2020.2 (64-bit)
Copyright 1986-2020 Xilinx, Inc. All Rights Reserved.
==============================================================
==============================================================
Vitis HLS - High-Level Synthesis from C, C++ and OpenCL v2020.2 (64-bit)
Copyright 1986-2020 Xilinx, Inc. All Rights Reserved.
==============================================================
==============================================================
Vitis HLS - High-Level Synthesis from C, C++ and OpenCL v2020.2 (64-bit)
Copyright 1986-2020 Xilinx, Inc. All Rights Reserved.
==============================================================
INFO: [SYN 201-201] Setting up clock 'default' with a period of 10ns.
INFO: [HLS 200-10] Setting target device to 'xczu19eg-ffvc1760-2-e'
INFO: [HLS 200-1505] Using flow_target 'vivado'
INFO: [HLS 200-1510] Running: set_part xczu19eg-ffvc1760-2-e 
INFO: [HLS 200-1510] Running: create_clock -period 10 -name default 
INFO: [HLS 200-1510] Running: set_directive_top -name axi_slave_lite_reg axi_slave_lite_reg 
INFO: [HLS 200-1510] Running: csynth_design 
INFO: [HLS 200-111] Finished File checks and directory preparation: CPU user time: 0.01 seconds. CPU system time: 0 seconds. Elapsed time: 0 seconds; current allocated memory: 90.592 MB.
INFO: [HLS 200-10] Analyzing design file 'axi_slave_lite_reg.cpp' ... 
INFO: [HLS 200-111] Finished Source Code Analysis and Preprocessing: CPU user time: 2.6 seconds. CPU system time: 0.65 seconds. Elapsed time: 2.79 seconds; current allocated memory: 91.742 MB.
INFO: [HLS 200-777] Using interface defaults for 'Vivado' flow target.
INFO: [HLS 214-210] Disaggregating variable 's_ar_copy'
INFO: [HLS 214-210] Disaggregating variable 's_aw_copy'
INFO: [HLS 214-210] Disaggregating variable 's_b_copy'
INFO: [HLS 214-210] Disaggregating variable 's_r_copy'
INFO: [HLS 214-210] Disaggregating variable 's_w_copy'
INFO: [HLS 214-131] Inlining function '_llvm.fpga.pack.none.i64.s_struct.ap_uints' into 'axi_slave_lite_reg(AxiArPkt&, AxiAwPkt&, AxiBPkt&, AxiRPkt&, AxiWPkt&)' (axi_slave_lite_reg.cpp:39:15)
INFO: [HLS 200-111] Finished Compiling Optimization and Transform: CPU user time: 2.31 seconds. CPU system time: 1.05 seconds. Elapsed time: 3.49 seconds; current allocated memory: 93.522 MB.
INFO: [HLS 200-111] Finished Checking Pragmas: CPU user time: 0 seconds. CPU system time: 0 seconds. Elapsed time: 0 seconds; current allocated memory: 93.523 MB.
INFO: [HLS 200-10] Starting code transformations ...
INFO: [HLS 200-111] Finished Standard Transforms: CPU user time: 0.02 seconds. CPU system time: 0.03 seconds. Elapsed time: 0.08 seconds; current allocated memory: 99.873 MB.
INFO: [HLS 200-10] Checking synthesizability ...
INFO: [HLS 200-111] Finished Checking Synthesizability: CPU user time: 0.05 seconds. CPU system time: 0.03 seconds. Elapsed time: 0.09 seconds; current allocated memory: 107.993 MB.
INFO: [XFORM 203-102] Automatically partitioning small array 'inner_reg.V' completely based on array size.
INFO: [XFORM 203-101] Partitioning array 'inner_reg.V' in dimension 1 completely.
INFO: [XFORM 203-603] Inlining function 'aesl_mux_load.4i64P0A.i2' into 'axi_slave_lite_reg' (axi_slave_lite_reg.cpp:39).
INFO: [HLS 200-111] Finished Loop, function and other optimizations: CPU user time: 0.17 seconds. CPU system time: 0.05 seconds. Elapsed time: 0.23 seconds; current allocated memory: 136.570 MB.
INFO: [HLS 200-111] Finished Architecture Synthesis: CPU user time: 0.12 seconds. CPU system time: 0 seconds. Elapsed time: 0.12 seconds; current allocated memory: 134.080 MB.
INFO: [HLS 200-10] Starting hardware synthesis ...
INFO: [HLS 200-10] Synthesizing 'axi_slave_lite_reg' ...
INFO: [HLS 200-10] ----------------------------------------------------------------
INFO: [HLS 200-42] -- Implementing module 'axi_slave_lite_reg' 
INFO: [HLS 200-10] ----------------------------------------------------------------
INFO: [SCHED 204-11] Starting scheduling ...
INFO: [SCHED 204-61] Pipelining function 'axi_slave_lite_reg'.
WARNING: [HLS 200-876] Unable to schedule the whole 2 cycles register write on port 's_ar_arready' (axi_slave_lite_reg.cpp:43) within the last cycle (II = 1). Please consider increasing the initiation interval of the pipeline.

WARNING: [HLS 200-876] Unable to schedule the whole 2 cycles register read on port 's_ar_araddr' (axi_slave_lite_reg.cpp:31) within the first cycle (II = 1). Please consider increasing the target initiation interval of the pipeline.

INFO: [HLS 200-1470] Pipelining result : Target II = 1, Final II = 1, Depth = 8, function 'axi_slave_lite_reg'
INFO: [SCHED 204-11] Finished scheduling.
INFO: [HLS 200-111] Finished Scheduling: CPU user time: 0.02 seconds. CPU system time: 0.02 seconds. Elapsed time: 0.06 seconds; current allocated memory: 134.594 MB.
INFO: [BIND 205-100] Starting micro-architecture generation ...
INFO: [BIND 205-101] Performing variable lifetime analysis.
INFO: [BIND 205-101] Exploring resource sharing.
INFO: [BIND 205-101] Binding ...
INFO: [BIND 205-100] Finished micro-architecture generation.
INFO: [HLS 200-111] Finished Binding: CPU user time: 0.03 seconds. CPU system time: 0.01 seconds. Elapsed time: 0.03 seconds; current allocated memory: 135.069 MB.
INFO: [HLS 200-10] ----------------------------------------------------------------
INFO: [HLS 200-10] -- Generating RTL for module 'axi_slave_lite_reg' 
INFO: [HLS 200-10] ----------------------------------------------------------------
INFO: [RTGEN 206-500] Setting interface mode on port 'axi_slave_lite_reg/s_ar_araddr' to 'ap_none' (register, both mode).
INFO: [RTGEN 206-500] Setting interface mode on port 'axi_slave_lite_reg/s_ar_arprot' to 'ap_none' (register, both mode).
INFO: [RTGEN 206-500] Setting interface mode on port 'axi_slave_lite_reg/s_ar_arready' to 'ap_none' (register, both mode).
WARNING: [RTGEN 206-101] Port 's_ar_arready' with mode 'ap_none' may require an associated data valid signal to correctly communicate with other blocks or a test bench; automatic C/RTL co-simulation may not be able to verify such a port.
WARNING: [RTGEN 206-101] Pointer port 's_ar_arready' in function pipeline may not be correctly catched for comparison in automatic C/RTL co-simulation; option '-last_write_notify' is recommended for 'set_directive_interface' on this port.
INFO: [RTGEN 206-500] Setting interface mode on port 'axi_slave_lite_reg/s_ar_arvalid' to 'ap_none' (register, both mode).
INFO: [RTGEN 206-500] Setting interface mode on port 'axi_slave_lite_reg/s_aw_awaddr' to 'ap_none' (register, both mode).
INFO: [RTGEN 206-500] Setting interface mode on port 'axi_slave_lite_reg/s_aw_awprot' to 'ap_none' (register, both mode).
INFO: [RTGEN 206-500] Setting interface mode on port 'axi_slave_lite_reg/s_aw_awready' to 'ap_none' (register, both mode).
WARNING: [RTGEN 206-101] Port 's_aw_awready' with mode 'ap_none' may require an associated data valid signal to correctly communicate with other blocks or a test bench; automatic C/RTL co-simulation may not be able to verify such a port.
INFO: [RTGEN 206-500] Setting interface mode on port 'axi_slave_lite_reg/s_aw_awvalid' to 'ap_none' (register, both mode).
INFO: [RTGEN 206-500] Setting interface mode on port 'axi_slave_lite_reg/s_b_bresp' to 'ap_none' (register, both mode).
WARNING: [RTGEN 206-101] Port 's_b_bresp' with mode 'ap_none' may require an associated data valid signal to correctly communicate with other blocks or a test bench; automatic C/RTL co-simulation may not be able to verify such a port.
WARNING: [RTGEN 206-101] Pointer port 's_b_bresp' in function pipeline may not be correctly catched for comparison in automatic C/RTL co-simulation; option '-last_write_notify' is recommended for 'set_directive_interface' on this port.
INFO: [RTGEN 206-500] Setting interface mode on port 'axi_slave_lite_reg/s_b_bready' to 'ap_none' (register, both mode).
WARNING: [RTGEN 206-101] Port 's_b_bready' with mode 'ap_none' may require an associated data valid signal to correctly communicate with other blocks or a test bench; automatic C/RTL co-simulation may not be able to verify such a port.
WARNING: [RTGEN 206-101] Pointer port 's_b_bready' in function pipeline may not be correctly catched for comparison in automatic C/RTL co-simulation; option '-last_write_notify' is recommended for 'set_directive_interface' on this port.
INFO: [RTGEN 206-500] Setting interface mode on port 'axi_slave_lite_reg/s_b_bvalid' to 'ap_none' (register, both mode).
INFO: [RTGEN 206-500] Setting interface mode on port 'axi_slave_lite_reg/s_r_rdata' to 'ap_none' (register, both mode).
WARNING: [RTGEN 206-101] Port 's_r_rdata' with mode 'ap_none' may require an associated data valid signal to correctly communicate with other blocks or a test bench; automatic C/RTL co-simulation may not be able to verify such a port.
==============================================================
Vitis HLS - High-Level Synthesis from C, C++ and OpenCL v2020.2 (64-bit)
Copyright 1986-2020 Xilinx, Inc. All Rights Reserved.
==============================================================
INFO: [SYN 201-201] Setting up clock 'default' with a period of 10ns.
INFO: [HLS 200-10] Setting target device to 'xczu19eg-ffvc1760-2-e'
INFO: [HLS 200-1505] Using flow_target 'vivado'
INFO: [HLS 200-1510] Running: set_part xczu19eg-ffvc1760-2-e 
INFO: [HLS 200-1510] Running: create_clock -period 10 -name default 
INFO: [HLS 200-1510] Running: set_directive_top -name axi_slave_lite_reg axi_slave_lite_reg 
INFO: [HLS 200-1510] Running: set_directive_protocol -mode fixed axi_slave_lite_reg/WAIT_FOR_READ 
INFO: [HLS 200-1510] Running: set_directive_protocol -mode fixed axi_slave_lite_reg/WAIT_FOR_BRESP 
INFO: [HLS 200-1510] Running: csynth_design 
INFO: [HLS 200-111] Finished File checks and directory preparation: CPU user time: 0 seconds. CPU system time: 0 seconds. Elapsed time: 0 seconds; current allocated memory: 90.595 MB.
INFO: [HLS 200-10] Analyzing design file 'axi_slave_lite_reg.cpp' ... 
INFO: [HLS 200-111] Finished Source Code Analysis and Preprocessing: CPU user time: 2.64 seconds. CPU system time: 0.57 seconds. Elapsed time: 2.72 seconds; current allocated memory: 91.775 MB.
INFO: [HLS 200-777] Using interface defaults for 'Vivado' flow target.
INFO: [HLS 214-210] Disaggregating variable 's_ar_copy'
INFO: [HLS 214-210] Disaggregating variable 's_aw_copy'
INFO: [HLS 214-210] Disaggregating variable 's_b_copy'
INFO: [HLS 214-210] Disaggregating variable 's_r_copy'
INFO: [HLS 214-210] Disaggregating variable 's_w_copy'
INFO: [HLS 214-131] Inlining function '_llvm.fpga.pack.none.i64.s_struct.ap_uints' into 'axi_slave_lite_reg(AxiArPkt&, AxiAwPkt&, AxiBPkt&, AxiRPkt&, AxiWPkt&)' (axi_slave_lite_reg.cpp:39:15)
INFO: [HLS 200-111] Finished Compiling Optimization and Transform: CPU user time: 2.66 seconds. CPU system time: 0.39 seconds. Elapsed time: 3.05 seconds; current allocated memory: 93.572 MB.
INFO: [HLS 200-111] Finished Checking Pragmas: CPU user time: 0 seconds. CPU system time: 0 seconds. Elapsed time: 0 seconds; current allocated memory: 93.573 MB.
INFO: [HLS 200-10] Starting code transformations ...
INFO: [HLS 200-111] Finished Standard Transforms: CPU user time: 0.04 seconds. CPU system time: 0.01 seconds. Elapsed time: 0.04 seconds; current allocated memory: 99.932 MB.
INFO: [HLS 200-10] Checking synthesizability ...
INFO: [HLS 200-111] Finished Checking Synthesizability: CPU user time: 0.08 seconds. CPU system time: 0.01 seconds. Elapsed time: 0.08 seconds; current allocated memory: 108.052 MB.
INFO: [XFORM 203-102] Automatically partitioning small array 'inner_reg.V' completely based on array size.
INFO: [XFORM 203-101] Partitioning array 'inner_reg.V' in dimension 1 completely.
INFO: [XFORM 203-603] Inlining function 'aesl_mux_load.4i64P0A.i2' into 'axi_slave_lite_reg' (axi_slave_lite_reg.cpp:39).
INFO: [HLS 200-111] Finished Loop, function and other optimizations: CPU user time: 0.2 seconds. CPU system time: 0.03 seconds. Elapsed time: 0.23 seconds; current allocated memory: 136.666 MB.
INFO: [HLS 200-111] Finished Architecture Synthesis: CPU user time: 0.11 seconds. CPU system time: 0.01 seconds. Elapsed time: 0.12 seconds; current allocated memory: 134.209 MB.
INFO: [HLS 200-10] Starting hardware synthesis ...
INFO: [HLS 200-10] Synthesizing 'axi_slave_lite_reg' ...
INFO: [HLS 200-10] ----------------------------------------------------------------
INFO: [HLS 200-42] -- Implementing module 'axi_slave_lite_reg' 
INFO: [HLS 200-10] ----------------------------------------------------------------
INFO: [SCHED 204-11] Starting scheduling ...
WARNING: [SCHED 204-36] Invalid protocol '1': additional 'wait'(s) required after the multi-cycle operation:
   register read on port 's_r_rready'.
WARNING: [SCHED 204-36] Invalid protocol '1': additional 'wait'(s) required after the multi-cycle operation:
   register write on port 's_r_rdata' (axi_slave_lite_reg.cpp:39).
WARNING: [SCHED 204-36] Invalid protocol '1': additional 'wait'(s) required after the multi-cycle operation:
   register write on port 's_r_rresp' (axi_slave_lite_reg.cpp:40).
WARNING: [SCHED 204-36] Unable to schedule the protocol specified by region '1'.
WARNING: [SCHED 204-36] Invalid protocol '0': additional 'wait'(s) required after the multi-cycle operation:
   register read on port 's_b_bvalid'.
WARNING: [SCHED 204-36] Unable to schedule the protocol specified by region '0'.
INFO: [SCHED 204-61] Pipelining function 'axi_slave_lite_reg'.
WARNING: [HLS 200-876] Unable to schedule the whole 2 cycles register write on port 's_ar_arready' (axi_slave_lite_reg.cpp:44) within the last cycle (II = 1). Please consider increasing the initiation interval of the pipeline.

WARNING: [HLS 200-876] Unable to schedule the whole 2 cycles register read on port 's_ar_araddr' (axi_slave_lite_reg.cpp:31) within the first cycle (II = 1). Please consider increasing the target initiation interval of the pipeline.

INFO: [HLS 200-1470] Pipelining result : Target II = 1, Final II = 1, Depth = 8, function 'axi_slave_lite_reg'
INFO: [SCHED 204-11] Finished scheduling.
INFO: [HLS 200-111] Finished Scheduling: CPU user time: 0.01 seconds. CPU system time: 0.03 seconds. Elapsed time: 0.04 seconds; current allocated memory: 134.733 MB.
INFO: [BIND 205-100] Starting micro-architecture generation ...
INFO: [BIND 205-101] Performing variable lifetime analysis.
INFO: [BIND 205-101] Exploring resource sharing.
INFO: [BIND 205-101] Binding ...
INFO: [BIND 205-100] Finished micro-architecture generation.
INFO: [HLS 200-111] Finished Binding: CPU user time: 0.01 seconds. CPU system time: 0.02 seconds. Elapsed time: 0.04 seconds; current allocated memory: 135.225 MB.
INFO: [HLS 200-10] ----------------------------------------------------------------
INFO: [HLS 200-10] -- Generating RTL for module 'axi_slave_lite_reg' 
INFO: [HLS 200-10] ----------------------------------------------------------------
INFO: [RTGEN 206-500] Setting interface mode on port 'axi_slave_lite_reg/s_ar_araddr' to 'ap_none' (register, both mode).
INFO: [RTGEN 206-500] Setting interface mode on port 'axi_slave_lite_reg/s_ar_arprot' to 'ap_none' (register, both mode).
INFO: [RTGEN 206-500] Setting interface mode on port 'axi_slave_lite_reg/s_ar_arready' to 'ap_none' (register, both mode).
WARNING: [RTGEN 206-101] Port 's_ar_arready' with mode 'ap_none' may require an associated data valid signal to correctly communicate with other blocks or a test bench; automatic C/RTL co-simulation may not be able to verify such a port.
WARNING: [RTGEN 206-101] Pointer port 's_ar_arready' in function pipeline may not be correctly catched for comparison in automatic C/RTL co-simulation; option '-last_write_notify' is recommended for 'set_directive_interface' on this port.
INFO: [RTGEN 206-500] Setting interface mode on port 'axi_slave_lite_reg/s_ar_arvalid' to 'ap_none' (register, both mode).
INFO: [RTGEN 206-500] Setting interface mode on port 'axi_slave_lite_reg/s_aw_awaddr' to 'ap_none' (register, both mode).
INFO: [RTGEN 206-500] Setting interface mode on port 'axi_slave_lite_reg/s_aw_awprot' to 'ap_none' (register, both mode).
INFO: [RTGEN 206-500] Setting interface mode on port 'axi_slave_lite_reg/s_aw_awready' to 'ap_none' (register, both mode).
WARNING: [RTGEN 206-101] Port 's_aw_awready' with mode 'ap_none' may require an associated data valid signal to correctly communicate with other blocks or a test bench; automatic C/RTL co-simulation may not be able to verify such a port.
INFO: [RTGEN 206-500] Setting interface mode on port 'axi_slave_lite_reg/s_aw_awvalid' to 'ap_none' (register, both mode).
INFO: [RTGEN 206-500] Setting interface mode on port 'axi_slave_lite_reg/s_b_bresp' to 'ap_none' (register, both mode).
WARNING: [RTGEN 206-101] Port 's_b_bresp' with mode 'ap_none' may require an associated data valid signal to correctly communicate with other blocks or a test bench; automatic C/RTL co-simulation may not be able to verify such a port.
WARNING: [RTGEN 206-101] Pointer port 's_b_bresp' in function pipeline may not be correctly catched for comparison in automatic C/RTL co-simulation; option '-last_write_notify' is recommended for 'set_directive_interface' on this port.
INFO: [RTGEN 206-500] Setting interface mode on port 'axi_slave_lite_reg/s_b_bready' to 'ap_none' (register, both mode).
==============================================================
Vitis HLS - High-Level Synthesis from C, C++ and OpenCL v2020.2 (64-bit)
Copyright 1986-2020 Xilinx, Inc. All Rights Reserved.
==============================================================
==============================================================
Vitis HLS - High-Level Synthesis from C, C++ and OpenCL v2020.2 (64-bit)
Copyright 1986-2020 Xilinx, Inc. All Rights Reserved.
==============================================================
INFO: [SYN 201-201] Setting up clock 'default' with a period of 10ns.
INFO: [HLS 200-10] Setting target device to 'xczu19eg-ffvc1760-2-e'
INFO: [HLS 200-1505] Using flow_target 'vivado'
INFO: [HLS 200-1510] Running: set_part xczu19eg-ffvc1760-2-e 
INFO: [HLS 200-1510] Running: create_clock -period 10 -name default 
INFO: [HLS 200-1510] Running: set_directive_top -name axi_slave_lite_reg axi_slave_lite_reg 
INFO: [HLS 200-1510] Running: set_directive_protocol -mode fixed axi_slave_lite_reg/WAIT_FOR_READ 
INFO: [HLS 200-1510] Running: set_directive_protocol -mode fixed axi_slave_lite_reg/WAIT_FOR_BRESP 
INFO: [HLS 200-1510] Running: csynth_design 
INFO: [HLS 200-111] Finished File checks and directory preparation: CPU user time: 0 seconds. CPU system time: 0 seconds. Elapsed time: 0 seconds; current allocated memory: 90.595 MB.
INFO: [HLS 200-10] Analyzing design file 'axi_slave_lite_reg.cpp' ... 
INFO: [HLS 200-111] Finished Source Code Analysis and Preprocessing: CPU user time: 2.63 seconds. CPU system time: 0.59 seconds. Elapsed time: 2.68 seconds; current allocated memory: 91.776 MB.
INFO: [HLS 200-777] Using interface defaults for 'Vivado' flow target.
INFO: [HLS 214-210] Disaggregating variable 's_ar_copy'
INFO: [HLS 214-210] Disaggregating variable 's_aw_copy'
INFO: [HLS 214-210] Disaggregating variable 's_b_copy'
INFO: [HLS 214-210] Disaggregating variable 's_r_copy'
INFO: [HLS 214-210] Disaggregating variable 's_w_copy'
INFO: [HLS 214-131] Inlining function '_llvm.fpga.pack.none.i64.s_struct.ap_uints' into 'axi_slave_lite_reg(AxiArPkt&, AxiAwPkt&, AxiBPkt&, AxiRPkt&, AxiWPkt&)' (axi_slave_lite_reg.cpp:39:15)
INFO: [HLS 200-111] Finished Compiling Optimization and Transform: CPU user time: 2.81 seconds. CPU system time: 0.37 seconds. Elapsed time: 3.17 seconds; current allocated memory: 93.602 MB.
INFO: [HLS 200-111] Finished Checking Pragmas: CPU user time: 0 seconds. CPU system time: 0 seconds. Elapsed time: 0 seconds; current allocated memory: 93.604 MB.
INFO: [HLS 200-10] Starting code transformations ...
INFO: [HLS 200-111] Finished Standard Transforms: CPU user time: 0.04 seconds. CPU system time: 0 seconds. Elapsed time: 0.05 seconds; current allocated memory: 99.963 MB.
INFO: [HLS 200-10] Checking synthesizability ...
INFO: [HLS 200-111] Finished Checking Synthesizability: CPU user time: 0.07 seconds. CPU system time: 0.02 seconds. Elapsed time: 0.08 seconds; current allocated memory: 108.085 MB.
INFO: [XFORM 203-102] Automatically partitioning small array 'inner_reg.V' completely based on array size.
INFO: [XFORM 203-101] Partitioning array 'inner_reg.V' in dimension 1 completely.
INFO: [XFORM 203-603] Inlining function 'aesl_mux_load.4i64P0A.i2' into 'axi_slave_lite_reg' (axi_slave_lite_reg.cpp:39).
INFO: [HLS 200-111] Finished Loop, function and other optimizations: CPU user time: 0.22 seconds. CPU system time: 0.02 seconds. Elapsed time: 0.24 seconds; current allocated memory: 136.704 MB.
INFO: [HLS 200-111] Finished Architecture Synthesis: CPU user time: 0.12 seconds. CPU system time: 0.01 seconds. Elapsed time: 0.13 seconds; current allocated memory: 134.215 MB.
INFO: [HLS 200-10] Starting hardware synthesis ...
INFO: [HLS 200-10] Synthesizing 'axi_slave_lite_reg' ...
INFO: [HLS 200-10] ----------------------------------------------------------------
INFO: [HLS 200-42] -- Implementing module 'axi_slave_lite_reg' 
INFO: [HLS 200-10] ----------------------------------------------------------------
INFO: [SCHED 204-11] Starting scheduling ...
WARNING: [SCHED 204-36] Invalid protocol '1': additional 'wait'(s) required after the multi-cycle operation:
   register read on port 's_r_rready'.
WARNING: [SCHED 204-36] Invalid protocol '1': additional 'wait'(s) required after the multi-cycle operation:
   register write on port 's_r_rdata' (axi_slave_lite_reg.cpp:39).
WARNING: [SCHED 204-36] Invalid protocol '1': additional 'wait'(s) required after the multi-cycle operation:
   register write on port 's_r_rresp' (axi_slave_lite_reg.cpp:40).
WARNING: [SCHED 204-36] Unable to schedule the protocol specified by region '1'.
WARNING: [SCHED 204-36] Invalid protocol '0': additional 'wait'(s) required after the multi-cycle operation:
   register read on port 's_b_bvalid'.
WARNING: [SCHED 204-36] Unable to schedule the protocol specified by region '0'.
INFO: [SCHED 204-61] Pipelining function 'axi_slave_lite_reg'.
WARNING: [HLS 200-876] Unable to schedule the whole 2 cycles register write on port 's_ar_arready' (axi_slave_lite_reg.cpp:44) within the last cycle (II = 1). Please consider increasing the initiation interval of the pipeline.

WARNING: [HLS 200-876] Unable to schedule the whole 2 cycles register read on port 's_ar_araddr' (axi_slave_lite_reg.cpp:31) within the first cycle (II = 1). Please consider increasing the target initiation interval of the pipeline.

INFO: [HLS 200-1470] Pipelining result : Target II = 1, Final II = 1, Depth = 8, function 'axi_slave_lite_reg'
INFO: [SCHED 204-11] Finished scheduling.
INFO: [HLS 200-111] Finished Scheduling: CPU user time: 0.03 seconds. CPU system time: 0 seconds. Elapsed time: 0.04 seconds; current allocated memory: 134.739 MB.
INFO: [BIND 205-100] Starting micro-architecture generation ...
INFO: [BIND 205-101] Performing variable lifetime analysis.
INFO: [BIND 205-101] Exploring resource sharing.
INFO: [BIND 205-101] Binding ...
INFO: [BIND 205-100] Finished micro-architecture generation.
INFO: [HLS 200-111] Finished Binding: CPU user time: 0.02 seconds. CPU system time: 0.02 seconds. Elapsed time: 0.03 seconds; current allocated memory: 135.233 MB.
INFO: [HLS 200-10] ----------------------------------------------------------------
INFO: [HLS 200-10] -- Generating RTL for module 'axi_slave_lite_reg' 
INFO: [HLS 200-10] ----------------------------------------------------------------
INFO: [RTGEN 206-500] Setting interface mode on port 'axi_slave_lite_reg/s_ar_araddr' to 'ap_none' (register, both mode).
INFO: [RTGEN 206-500] Setting interface mode on port 'axi_slave_lite_reg/s_ar_arprot' to 'ap_none' (register, both mode).
INFO: [RTGEN 206-500] Setting interface mode on port 'axi_slave_lite_reg/s_ar_arready' to 'ap_none' (register, both mode).
WARNING: [RTGEN 206-101] Port 's_ar_arready' with mode 'ap_none' may require an associated data valid signal to correctly communicate with other blocks or a test bench; automatic C/RTL co-simulation may not be able to verify such a port.
WARNING: [RTGEN 206-101] Pointer port 's_ar_arready' in function pipeline may not be correctly catched for comparison in automatic C/RTL co-simulation; option '-last_write_notify' is recommended for 'set_directive_interface' on this port.
INFO: [RTGEN 206-500] Setting interface mode on port 'axi_slave_lite_reg/s_ar_arvalid' to 'ap_none' (register, both mode).
INFO: [RTGEN 206-500] Setting interface mode on port 'axi_slave_lite_reg/s_aw_awaddr' to 'ap_none' (register, both mode).
INFO: [RTGEN 206-500] Setting interface mode on port 'axi_slave_lite_reg/s_aw_awprot' to 'ap_none' (register, both mode).
INFO: [RTGEN 206-500] Setting interface mode on port 'axi_slave_lite_reg/s_aw_awready' to 'ap_none' (register, both mode).
WARNING: [RTGEN 206-101] Port 's_aw_awready' with mode 'ap_none' may require an associated data valid signal to correctly communicate with other blocks or a test bench; automatic C/RTL co-simulation may not be able to verify such a port.
INFO: [RTGEN 206-500] Setting interface mode on port 'axi_slave_lite_reg/s_aw_awvalid' to 'ap_none' (register, both mode).
INFO: [RTGEN 206-500] Setting interface mode on port 'axi_slave_lite_reg/s_b_bresp' to 'ap_none' (register, both mode).
WARNING: [RTGEN 206-101] Port 's_b_bresp' with mode 'ap_none' may require an associated data valid signal to correctly communicate with other blocks or a test bench; automatic C/RTL co-simulation may not be able to verify such a port.
WARNING: [RTGEN 206-101] Pointer port 's_b_bresp' in function pipeline may not be correctly catched for comparison in automatic C/RTL co-simulation; option '-last_write_notify' is recommended for 'set_directive_interface' on this port.
INFO: [RTGEN 206-500] Setting interface mode on port 'axi_slave_lite_reg/s_b_bready' to 'ap_none' (register, both mode).
==============================================================
Vitis HLS - High-Level Synthesis from C, C++ and OpenCL v2020.2 (64-bit)
Copyright 1986-2020 Xilinx, Inc. All Rights Reserved.
==============================================================
==============================================================
Vitis HLS - High-Level Synthesis from C, C++ and OpenCL v2020.2 (64-bit)
Copyright 1986-2020 Xilinx, Inc. All Rights Reserved.
==============================================================
INFO: [SYN 201-201] Setting up clock 'default' with a period of 10ns.
INFO: [HLS 200-10] Setting target device to 'xczu19eg-ffvc1760-2-e'
INFO: [HLS 200-1505] Using flow_target 'vivado'
INFO: [HLS 200-1510] Running: set_part xczu19eg-ffvc1760-2-e 
INFO: [HLS 200-1510] Running: create_clock -period 10 -name default 
INFO: [HLS 200-1510] Running: set_directive_top -name axi_slave_lite_reg axi_slave_lite_reg 
INFO: [HLS 200-1510] Running: set_directive_protocol -mode fixed axi_slave_lite_reg/WAIT_FOR_READ 
INFO: [HLS 200-1510] Running: set_directive_protocol -mode fixed axi_slave_lite_reg/WAIT_FOR_BRESP 
INFO: [HLS 200-1510] Running: csynth_design 
INFO: [HLS 200-111] Finished File checks and directory preparation: CPU user time: 0.01 seconds. CPU system time: 0 seconds. Elapsed time: 0 seconds; current allocated memory: 90.595 MB.
INFO: [HLS 200-10] Analyzing design file 'axi_slave_lite_reg.cpp' ... 
INFO: [HLS 200-111] Finished Source Code Analysis and Preprocessing: CPU user time: 2.6 seconds. CPU system time: 0.58 seconds. Elapsed time: 2.62 seconds; current allocated memory: 91.776 MB.
INFO: [HLS 200-777] Using interface defaults for 'Vivado' flow target.
INFO: [HLS 214-210] Disaggregating variable 's_ar_copy'
INFO: [HLS 214-210] Disaggregating variable 's_aw_copy'
INFO: [HLS 214-210] Disaggregating variable 's_b_copy'
INFO: [HLS 214-210] Disaggregating variable 's_r_copy'
INFO: [HLS 214-210] Disaggregating variable 's_w_copy'
INFO: [HLS 214-131] Inlining function '_llvm.fpga.pack.none.i64.s_struct.ap_uints' into 'axi_slave_lite_reg(AxiArPkt&, AxiAwPkt&, AxiBPkt&, AxiRPkt&, AxiWPkt&)' (axi_slave_lite_reg.cpp:39:15)
INFO: [HLS 200-111] Finished Compiling Optimization and Transform: CPU user time: 2.7 seconds. CPU system time: 0.43 seconds. Elapsed time: 3.13 seconds; current allocated memory: 93.603 MB.
INFO: [HLS 200-111] Finished Checking Pragmas: CPU user time: 0 seconds. CPU system time: 0 seconds. Elapsed time: 0 seconds; current allocated memory: 93.604 MB.
INFO: [HLS 200-10] Starting code transformations ...
INFO: [HLS 200-111] Finished Standard Transforms: CPU user time: 0.03 seconds. CPU system time: 0.01 seconds. Elapsed time: 0.04 seconds; current allocated memory: 99.964 MB.
INFO: [HLS 200-10] Checking synthesizability ...
INFO: [HLS 200-111] Finished Checking Synthesizability: CPU user time: 0.06 seconds. CPU system time: 0.02 seconds. Elapsed time: 0.08 seconds; current allocated memory: 108.085 MB.
INFO: [XFORM 203-102] Automatically partitioning small array 'inner_reg.V' completely based on array size.
INFO: [XFORM 203-101] Partitioning array 'inner_reg.V' in dimension 1 completely.
INFO: [XFORM 203-603] Inlining function 'aesl_mux_load.4i64P0A.i2' into 'axi_slave_lite_reg' (axi_slave_lite_reg.cpp:39).
INFO: [HLS 200-111] Finished Loop, function and other optimizations: CPU user time: 0.2 seconds. CPU system time: 0.03 seconds. Elapsed time: 0.22 seconds; current allocated memory: 136.700 MB.
INFO: [HLS 200-111] Finished Architecture Synthesis: CPU user time: 0.12 seconds. CPU system time: 0.01 seconds. Elapsed time: 0.12 seconds; current allocated memory: 134.213 MB.
INFO: [HLS 200-10] Starting hardware synthesis ...
INFO: [HLS 200-10] Synthesizing 'axi_slave_lite_reg' ...
INFO: [HLS 200-10] ----------------------------------------------------------------
INFO: [HLS 200-42] -- Implementing module 'axi_slave_lite_reg' 
INFO: [HLS 200-10] ----------------------------------------------------------------
INFO: [SCHED 204-11] Starting scheduling ...
WARNING: [SCHED 204-36] Invalid protocol '1': additional 'wait'(s) required after the multi-cycle operation:
   register read on port 's_r_rready'.
WARNING: [SCHED 204-36] Invalid protocol '1': additional 'wait'(s) required after the multi-cycle operation:
   register write on port 's_r_rdata' (axi_slave_lite_reg.cpp:39).
WARNING: [SCHED 204-36] Invalid protocol '1': additional 'wait'(s) required after the multi-cycle operation:
   register write on port 's_r_rresp' (axi_slave_lite_reg.cpp:40).
WARNING: [SCHED 204-36] Unable to schedule the protocol specified by region '1'.
WARNING: [SCHED 204-36] Invalid protocol '0': additional 'wait'(s) required after the multi-cycle operation:
   register read on port 's_b_bvalid'.
WARNING: [SCHED 204-36] Unable to schedule the protocol specified by region '0'.
INFO: [SCHED 204-61] Pipelining function 'axi_slave_lite_reg'.
WARNING: [HLS 200-876] Unable to schedule the whole 2 cycles register write on port 's_ar_arready' (axi_slave_lite_reg.cpp:44) within the last cycle (II = 1). Please consider increasing the initiation interval of the pipeline.

WARNING: [HLS 200-876] Unable to schedule the whole 2 cycles register read on port 's_ar_araddr' (axi_slave_lite_reg.cpp:31) within the first cycle (II = 1). Please consider increasing the target initiation interval of the pipeline.

INFO: [HLS 200-1470] Pipelining result : Target II = 1, Final II = 1, Depth = 8, function 'axi_slave_lite_reg'
INFO: [SCHED 204-11] Finished scheduling.
INFO: [HLS 200-111] Finished Scheduling: CPU user time: 0 seconds. CPU system time: 0.03 seconds. Elapsed time: 0.03 seconds; current allocated memory: 134.735 MB.
INFO: [BIND 205-100] Starting micro-architecture generation ...
INFO: [BIND 205-101] Performing variable lifetime analysis.
INFO: [BIND 205-101] Exploring resource sharing.
INFO: [BIND 205-101] Binding ...
INFO: [BIND 205-100] Finished micro-architecture generation.
INFO: [HLS 200-111] Finished Binding: CPU user time: 0.03 seconds. CPU system time: 0 seconds. Elapsed time: 0.04 seconds; current allocated memory: 135.228 MB.
INFO: [HLS 200-10] ----------------------------------------------------------------
INFO: [HLS 200-10] -- Generating RTL for module 'axi_slave_lite_reg' 
INFO: [HLS 200-10] ----------------------------------------------------------------
INFO: [RTGEN 206-500] Setting interface mode on port 'axi_slave_lite_reg/s_ar_araddr' to 'ap_none' (register, both mode).
INFO: [RTGEN 206-500] Setting interface mode on port 'axi_slave_lite_reg/s_ar_arprot' to 'ap_none' (register, both mode).
INFO: [RTGEN 206-500] Setting interface mode on port 'axi_slave_lite_reg/s_ar_arready' to 'ap_none' (register, both mode).
WARNING: [RTGEN 206-101] Port 's_ar_arready' with mode 'ap_none' may require an associated data valid signal to correctly communicate with other blocks or a test bench; automatic C/RTL co-simulation may not be able to verify such a port.
WARNING: [RTGEN 206-101] Pointer port 's_ar_arready' in function pipeline may not be correctly catched for comparison in automatic C/RTL co-simulation; option '-last_write_notify' is recommended for 'set_directive_interface' on this port.
INFO: [RTGEN 206-500] Setting interface mode on port 'axi_slave_lite_reg/s_ar_arvalid' to 'ap_none' (register, both mode).
INFO: [RTGEN 206-500] Setting interface mode on port 'axi_slave_lite_reg/s_aw_awaddr' to 'ap_none' (register, both mode).
INFO: [RTGEN 206-500] Setting interface mode on port 'axi_slave_lite_reg/s_aw_awprot' to 'ap_none' (register, both mode).
INFO: [RTGEN 206-500] Setting interface mode on port 'axi_slave_lite_reg/s_aw_awready' to 'ap_none' (register, both mode).
WARNING: [RTGEN 206-101] Port 's_aw_awready' with mode 'ap_none' may require an associated data valid signal to correctly communicate with other blocks or a test bench; automatic C/RTL co-simulation may not be able to verify such a port.
INFO: [RTGEN 206-500] Setting interface mode on port 'axi_slave_lite_reg/s_aw_awvalid' to 'ap_none' (register, both mode).
INFO: [RTGEN 206-500] Setting interface mode on port 'axi_slave_lite_reg/s_b_bresp' to 'ap_none' (register, both mode).
WARNING: [RTGEN 206-101] Port 's_b_bresp' with mode 'ap_none' may require an associated data valid signal to correctly communicate with other blocks or a test bench; automatic C/RTL co-simulation may not be able to verify such a port.
WARNING: [RTGEN 206-101] Pointer port 's_b_bresp' in function pipeline may not be correctly catched for comparison in automatic C/RTL co-simulation; option '-last_write_notify' is recommended for 'set_directive_interface' on this port.
INFO: [RTGEN 206-500] Setting interface mode on port 'axi_slave_lite_reg/s_b_bready' to 'ap_none' (register, both mode).
==============================================================
Vitis HLS - High-Level Synthesis from C, C++ and OpenCL v2020.2 (64-bit)
Copyright 1986-2020 Xilinx, Inc. All Rights Reserved.
==============================================================
==============================================================
Vitis HLS - High-Level Synthesis from C, C++ and OpenCL v2020.2 (64-bit)
Copyright 1986-2020 Xilinx, Inc. All Rights Reserved.
==============================================================
INFO: [SYN 201-201] Setting up clock 'default' with a period of 10ns.
INFO: [HLS 200-10] Setting target device to 'xczu19eg-ffvc1760-2-e'
INFO: [HLS 200-1505] Using flow_target 'vivado'
INFO: [HLS 200-1510] Running: set_part xczu19eg-ffvc1760-2-e 
INFO: [HLS 200-1510] Running: create_clock -period 10 -name default 
INFO: [HLS 200-1510] Running: set_directive_top -name axi_slave_lite_reg axi_slave_lite_reg 
INFO: [HLS 200-1510] Running: set_directive_protocol -mode fixed axi_slave_lite_reg/WAIT_FOR_READ 
INFO: [HLS 200-1510] Running: set_directive_protocol -mode fixed axi_slave_lite_reg/WAIT_FOR_BRESP 
INFO: [HLS 200-1510] Running: csynth_design 
INFO: [HLS 200-111] Finished File checks and directory preparation: CPU user time: 0 seconds. CPU system time: 0.01 seconds. Elapsed time: 0 seconds; current allocated memory: 106.597 MB.
INFO: [HLS 200-10] Analyzing design file 'axi_slave_lite_reg.cpp' ... 
INFO: [HLS 200-111] Finished Source Code Analysis and Preprocessing: CPU user time: 2.82 seconds. CPU system time: 0.5 seconds. Elapsed time: 2.75 seconds; current allocated memory: 107.778 MB.
INFO: [HLS 200-777] Using interface defaults for 'Vivado' flow target.
INFO: [HLS 214-210] Disaggregating variable 's_ar_copy'
INFO: [HLS 214-210] Disaggregating variable 's_aw_copy'
INFO: [HLS 214-210] Disaggregating variable 's_b_copy'
INFO: [HLS 214-210] Disaggregating variable 's_r_copy'
INFO: [HLS 214-210] Disaggregating variable 's_w_copy'
INFO: [HLS 214-131] Inlining function '_llvm.fpga.pack.none.i64.s_struct.ap_uints' into 'axi_slave_lite_reg(AxiArPkt&, AxiAwPkt&, AxiBPkt&, AxiRPkt&, AxiWPkt&)' (axi_slave_lite_reg.cpp:39:15)
INFO: [HLS 200-111] Finished Compiling Optimization and Transform: CPU user time: 2.78 seconds. CPU system time: 0.4 seconds. Elapsed time: 3.17 seconds; current allocated memory: 109.603 MB.
INFO: [HLS 200-111] Finished Checking Pragmas: CPU user time: 0 seconds. CPU system time: 0 seconds. Elapsed time: 0 seconds; current allocated memory: 109.605 MB.
INFO: [HLS 200-10] Starting code transformations ...
INFO: [HLS 200-111] Finished Standard Transforms: CPU user time: 0.02 seconds. CPU system time: 0.02 seconds. Elapsed time: 0.04 seconds; current allocated memory: 115.983 MB.
INFO: [HLS 200-10] Checking synthesizability ...
INFO: [HLS 200-111] Finished Checking Synthesizability: CPU user time: 0.07 seconds. CPU system time: 0.01 seconds. Elapsed time: 0.08 seconds; current allocated memory: 124.096 MB.
INFO: [XFORM 203-102] Automatically partitioning small array 'inner_reg.V' completely based on array size.
INFO: [XFORM 203-101] Partitioning array 'inner_reg.V' in dimension 1 completely.
INFO: [XFORM 203-603] Inlining function 'aesl_mux_load.4i64P0A.i2' into 'axi_slave_lite_reg' (axi_slave_lite_reg.cpp:39).
INFO: [HLS 200-111] Finished Loop, function and other optimizations: CPU user time: 0.19 seconds. CPU system time: 0.05 seconds. Elapsed time: 0.23 seconds; current allocated memory: 152.703 MB.
INFO: [HLS 200-111] Finished Architecture Synthesis: CPU user time: 0.11 seconds. CPU system time: 0.01 seconds. Elapsed time: 0.12 seconds; current allocated memory: 150.204 MB.
INFO: [HLS 200-10] Starting hardware synthesis ...
INFO: [HLS 200-10] Synthesizing 'axi_slave_lite_reg' ...
INFO: [HLS 200-10] ----------------------------------------------------------------
INFO: [HLS 200-42] -- Implementing module 'axi_slave_lite_reg' 
INFO: [HLS 200-10] ----------------------------------------------------------------
INFO: [SCHED 204-11] Starting scheduling ...
WARNING: [SCHED 204-36] Invalid protocol '1': additional 'wait'(s) required after the multi-cycle operation:
   register read on port 's_r_rready'.
WARNING: [SCHED 204-36] Invalid protocol '1': additional 'wait'(s) required after the multi-cycle operation:
   register write on port 's_r_rvalid' (axi_slave_lite_reg.cpp:45).
WARNING: [SCHED 204-36] Invalid protocol '1': additional 'wait'(s) required after the multi-cycle operation:
   register write on port 's_r_rdata' (axi_slave_lite_reg.cpp:39).
WARNING: [SCHED 204-36] Invalid protocol '1': additional 'wait'(s) required after the multi-cycle operation:
   register write on port 's_r_rresp' (axi_slave_lite_reg.cpp:40).
WARNING: [SCHED 204-36] Unable to schedule the protocol specified by region '1'.
WARNING: [SCHED 204-36] Invalid protocol '0': additional 'wait'(s) required after the multi-cycle operation:
   register write on port 's_b_bvalid' (axi_slave_lite_reg.cpp:75).
WARNING: [SCHED 204-36] Unable to schedule the protocol specified by region '0'.
INFO: [SCHED 204-61] Pipelining function 'axi_slave_lite_reg'.
WARNING: [HLS 200-876] Unable to schedule the whole 2 cycles register write on port 's_ar_arready' (axi_slave_lite_reg.cpp:49) within the last cycle (II = 1). Please consider increasing the initiation interval of the pipeline.

WARNING: [HLS 200-876] Unable to schedule the whole 2 cycles register read on port 's_ar_araddr' (axi_slave_lite_reg.cpp:30) within the first cycle (II = 1). Please consider increasing the target initiation interval of the pipeline.

INFO: [HLS 200-1470] Pipelining result : Target II = 1, Final II = 1, Depth = 9, function 'axi_slave_lite_reg'
INFO: [SCHED 204-11] Finished scheduling.
INFO: [HLS 200-111] Finished Scheduling: CPU user time: 0 seconds. CPU system time: 0.04 seconds. Elapsed time: 0.04 seconds; current allocated memory: 150.733 MB.
INFO: [BIND 205-100] Starting micro-architecture generation ...
INFO: [BIND 205-101] Performing variable lifetime analysis.
INFO: [BIND 205-101] Exploring resource sharing.
INFO: [BIND 205-101] Binding ...
INFO: [BIND 205-100] Finished micro-architecture generation.
INFO: [HLS 200-111] Finished Binding: CPU user time: 0.02 seconds. CPU system time: 0.01 seconds. Elapsed time: 0.04 seconds; current allocated memory: 151.234 MB.
INFO: [HLS 200-10] ----------------------------------------------------------------
INFO: [HLS 200-10] -- Generating RTL for module 'axi_slave_lite_reg' 
INFO: [HLS 200-10] ----------------------------------------------------------------
INFO: [RTGEN 206-500] Setting interface mode on port 'axi_slave_lite_reg/s_ar_araddr' to 'ap_none' (register, both mode).
INFO: [RTGEN 206-500] Setting interface mode on port 'axi_slave_lite_reg/s_ar_arprot' to 'ap_none' (register, both mode).
INFO: [RTGEN 206-500] Setting interface mode on port 'axi_slave_lite_reg/s_ar_arready' to 'ap_none' (register, both mode).
WARNING: [RTGEN 206-101] Port 's_ar_arready' with mode 'ap_none' may require an associated data valid signal to correctly communicate with other blocks or a test bench; automatic C/RTL co-simulation may not be able to verify such a port.
WARNING: [RTGEN 206-101] Pointer port 's_ar_arready' in function pipeline may not be correctly catched for comparison in automatic C/RTL co-simulation; option '-last_write_notify' is recommended for 'set_directive_interface' on this port.
INFO: [RTGEN 206-500] Setting interface mode on port 'axi_slave_lite_reg/s_ar_arvalid' to 'ap_none' (register, both mode).
INFO: [RTGEN 206-500] Setting interface mode on port 'axi_slave_lite_reg/s_aw_awaddr' to 'ap_none' (register, both mode).
INFO: [RTGEN 206-500] Setting interface mode on port 'axi_slave_lite_reg/s_aw_awprot' to 'ap_none' (register, both mode).
INFO: [RTGEN 206-500] Setting interface mode on port 'axi_slave_lite_reg/s_aw_awready' to 'ap_none' (register, both mode).
WARNING: [RTGEN 206-101] Port 's_aw_awready' with mode 'ap_none' may require an associated data valid signal to correctly communicate with other blocks or a test bench; automatic C/RTL co-simulation may not be able to verify such a port.
WARNING: [RTGEN 206-101] Pointer port 's_aw_awready' in function pipeline may not be correctly catched for comparison in automatic C/RTL co-simulation; option '-last_write_notify' is recommended for 'set_directive_interface' on this port.
INFO: [RTGEN 206-500] Setting interface mode on port 'axi_slave_lite_reg/s_aw_awvalid' to 'ap_none' (register, both mode).
INFO: [RTGEN 206-500] Setting interface mode on port 'axi_slave_lite_reg/s_b_bresp' to 'ap_none' (register, both mode).
WARNING: [RTGEN 206-101] Port 's_b_bresp' with mode 'ap_none' may require an associated data valid signal to correctly communicate with other blocks or a test bench; automatic C/RTL co-simulation may not be able to verify such a port.
==============================================================
Vitis HLS - High-Level Synthesis from C, C++ and OpenCL v2020.2 (64-bit)
Copyright 1986-2020 Xilinx, Inc. All Rights Reserved.
==============================================================
INFO: [SYN 201-201] Setting up clock 'default' with a period of 10ns.
INFO: [HLS 200-10] Setting target device to 'xczu19eg-ffvc1760-2-e'
INFO: [HLS 200-1505] Using flow_target 'vivado'
INFO: [HLS 200-1510] Running: set_part xczu19eg-ffvc1760-2-e 
INFO: [HLS 200-1510] Running: create_clock -period 10 -name default 
INFO: [HLS 200-1510] Running: set_directive_top -name axi_slave_lite_reg axi_slave_lite_reg 
INFO: [HLS 200-1510] Running: set_directive_protocol -mode fixed axi_slave_lite_reg/WAIT_FOR_READ 
INFO: [HLS 200-1510] Running: set_directive_protocol -mode fixed axi_slave_lite_reg/WAIT_FOR_BRESP 
INFO: [HLS 200-1510] Running: csynth_design 
INFO: [HLS 200-111] Finished File checks and directory preparation: CPU user time: 0.01 seconds. CPU system time: 0.01 seconds. Elapsed time: 0.01 seconds; current allocated memory: 106.597 MB.
INFO: [HLS 200-10] Analyzing design file 'axi_slave_lite_reg.cpp' ... 
INFO: [HLS 200-111] Finished Source Code Analysis and Preprocessing: CPU user time: 2.81 seconds. CPU system time: 0.49 seconds. Elapsed time: 2.87 seconds; current allocated memory: 107.777 MB.
INFO: [HLS 200-777] Using interface defaults for 'Vivado' flow target.
INFO: [HLS 214-210] Disaggregating variable 's_ar_copy'
INFO: [HLS 214-210] Disaggregating variable 's_aw_copy'
INFO: [HLS 214-210] Disaggregating variable 's_b_copy'
INFO: [HLS 214-210] Disaggregating variable 's_r_copy'
INFO: [HLS 214-210] Disaggregating variable 's_w_copy'
INFO: [HLS 214-131] Inlining function '_llvm.fpga.pack.none.i64.s_struct.ap_uints' into 'axi_slave_lite_reg(AxiArPkt&, AxiAwPkt&, AxiBPkt&, AxiRPkt&, AxiWPkt&)' (axi_slave_lite_reg.cpp:39:15)
INFO: [HLS 200-111] Finished Compiling Optimization and Transform: CPU user time: 2.81 seconds. CPU system time: 0.42 seconds. Elapsed time: 3.21 seconds; current allocated memory: 109.603 MB.
INFO: [HLS 200-111] Finished Checking Pragmas: CPU user time: 0 seconds. CPU system time: 0 seconds. Elapsed time: 0 seconds; current allocated memory: 109.605 MB.
INFO: [HLS 200-10] Starting code transformations ...
INFO: [HLS 200-111] Finished Standard Transforms: CPU user time: 0.04 seconds. CPU system time: 0 seconds. Elapsed time: 0.04 seconds; current allocated memory: 115.975 MB.
INFO: [HLS 200-10] Checking synthesizability ...
INFO: [HLS 200-111] Finished Checking Synthesizability: CPU user time: 0.08 seconds. CPU system time: 0.01 seconds. Elapsed time: 0.09 seconds; current allocated memory: 124.098 MB.
INFO: [XFORM 203-102] Automatically partitioning small array 'inner_reg.V' completely based on array size.
INFO: [XFORM 203-101] Partitioning array 'inner_reg.V' in dimension 1 completely.
INFO: [XFORM 203-603] Inlining function 'aesl_mux_load.4i64P0A.i2' into 'axi_slave_lite_reg' (axi_slave_lite_reg.cpp:39).
INFO: [HLS 200-111] Finished Loop, function and other optimizations: CPU user time: 0.21 seconds. CPU system time: 0.03 seconds. Elapsed time: 0.25 seconds; current allocated memory: 152.711 MB.
INFO: [HLS 200-111] Finished Architecture Synthesis: CPU user time: 0.12 seconds. CPU system time: 0.01 seconds. Elapsed time: 0.13 seconds; current allocated memory: 150.234 MB.
INFO: [HLS 200-10] Starting hardware synthesis ...
INFO: [HLS 200-10] Synthesizing 'axi_slave_lite_reg' ...
INFO: [HLS 200-10] ----------------------------------------------------------------
INFO: [HLS 200-42] -- Implementing module 'axi_slave_lite_reg' 
INFO: [HLS 200-10] ----------------------------------------------------------------
INFO: [SCHED 204-11] Starting scheduling ...
WARNING: [SCHED 204-36] Invalid protocol '1': additional 'wait'(s) required after the multi-cycle operation:
   register read on port 's_r_rready'.
WARNING: [SCHED 204-36] Invalid protocol '1': additional 'wait'(s) required after the multi-cycle operation:
   register write on port 's_r_rvalid' (axi_slave_lite_reg.cpp:45).
WARNING: [SCHED 204-36] Invalid protocol '1': additional 'wait'(s) required after the multi-cycle operation:
   register write on port 's_r_rdata' (axi_slave_lite_reg.cpp:39).
WARNING: [SCHED 204-36] Invalid protocol '1': additional 'wait'(s) required after the multi-cycle operation:
   register write on port 's_r_rresp' (axi_slave_lite_reg.cpp:40).
WARNING: [SCHED 204-36] Unable to schedule the protocol specified by region '1'.
WARNING: [SCHED 204-36] Invalid protocol '0': additional 'wait'(s) required after the multi-cycle operation:
   register read on port 's_b_bready'.
WARNING: [SCHED 204-36] Invalid protocol '0': additional 'wait'(s) required after the multi-cycle operation:
   register write on port 's_b_bvalid' (axi_slave_lite_reg.cpp:75).
WARNING: [SCHED 204-36] Unable to schedule the protocol specified by region '0'.
INFO: [SCHED 204-61] Pipelining function 'axi_slave_lite_reg'.
WARNING: [HLS 200-876] Unable to schedule the whole 2 cycles register write on port 's_ar_arready' (axi_slave_lite_reg.cpp:49) within the last cycle (II = 1). Please consider increasing the initiation interval of the pipeline.

WARNING: [HLS 200-876] Unable to schedule the whole 2 cycles register read on port 's_ar_araddr' (axi_slave_lite_reg.cpp:30) within the first cycle (II = 1). Please consider increasing the target initiation interval of the pipeline.

INFO: [HLS 200-1470] Pipelining result : Target II = 1, Final II = 1, Depth = 9, function 'axi_slave_lite_reg'
INFO: [SCHED 204-11] Finished scheduling.
INFO: [HLS 200-111] Finished Scheduling: CPU user time: 0 seconds. CPU system time: 0.03 seconds. Elapsed time: 0.04 seconds; current allocated memory: 150.765 MB.
INFO: [BIND 205-100] Starting micro-architecture generation ...
INFO: [BIND 205-101] Performing variable lifetime analysis.
INFO: [BIND 205-101] Exploring resource sharing.
INFO: [BIND 205-101] Binding ...
INFO: [BIND 205-100] Finished micro-architecture generation.
INFO: [HLS 200-111] Finished Binding: CPU user time: 0.02 seconds. CPU system time: 0.01 seconds. Elapsed time: 0.04 seconds; current allocated memory: 151.271 MB.
INFO: [HLS 200-10] ----------------------------------------------------------------
INFO: [HLS 200-10] -- Generating RTL for module 'axi_slave_lite_reg' 
INFO: [HLS 200-10] ----------------------------------------------------------------
INFO: [RTGEN 206-500] Setting interface mode on port 'axi_slave_lite_reg/s_ar_araddr' to 'ap_none' (register, both mode).
INFO: [RTGEN 206-500] Setting interface mode on port 'axi_slave_lite_reg/s_ar_arprot' to 'ap_none' (register, both mode).
INFO: [RTGEN 206-500] Setting interface mode on port 'axi_slave_lite_reg/s_ar_arready' to 'ap_none' (register, both mode).
WARNING: [RTGEN 206-101] Port 's_ar_arready' with mode 'ap_none' may require an associated data valid signal to correctly communicate with other blocks or a test bench; automatic C/RTL co-simulation may not be able to verify such a port.
WARNING: [RTGEN 206-101] Pointer port 's_ar_arready' in function pipeline may not be correctly catched for comparison in automatic C/RTL co-simulation; option '-last_write_notify' is recommended for 'set_directive_interface' on this port.
INFO: [RTGEN 206-500] Setting interface mode on port 'axi_slave_lite_reg/s_ar_arvalid' to 'ap_none' (register, both mode).
INFO: [RTGEN 206-500] Setting interface mode on port 'axi_slave_lite_reg/s_aw_awaddr' to 'ap_none' (register, both mode).
INFO: [RTGEN 206-500] Setting interface mode on port 'axi_slave_lite_reg/s_aw_awprot' to 'ap_none' (register, both mode).
INFO: [RTGEN 206-500] Setting interface mode on port 'axi_slave_lite_reg/s_aw_awready' to 'ap_none' (register, both mode).
WARNING: [RTGEN 206-101] Port 's_aw_awready' with mode 'ap_none' may require an associated data valid signal to correctly communicate with other blocks or a test bench; automatic C/RTL co-simulation may not be able to verify such a port.
WARNING: [RTGEN 206-101] Pointer port 's_aw_awready' in function pipeline may not be correctly catched for comparison in automatic C/RTL co-simulation; option '-last_write_notify' is recommended for 'set_directive_interface' on this port.
INFO: [RTGEN 206-500] Setting interface mode on port 'axi_slave_lite_reg/s_aw_awvalid' to 'ap_none' (register, both mode).
INFO: [RTGEN 206-500] Setting interface mode on port 'axi_slave_lite_reg/s_b_bresp' to 'ap_none' (register, both mode).
==============================================================
Vitis HLS - High-Level Synthesis from C, C++ and OpenCL v2020.2 (64-bit)
Copyright 1986-2020 Xilinx, Inc. All Rights Reserved.
==============================================================
==============================================================
Vitis HLS - High-Level Synthesis from C, C++ and OpenCL v2020.2 (64-bit)
Copyright 1986-2020 Xilinx, Inc. All Rights Reserved.
==============================================================
INFO: [SYN 201-201] Setting up clock 'default' with a period of 10ns.
INFO: [HLS 200-10] Setting target device to 'xczu19eg-ffvc1760-2-e'
INFO: [HLS 200-1505] Using flow_target 'vivado'
INFO: [HLS 200-1510] Running: set_part xczu19eg-ffvc1760-2-e 
INFO: [HLS 200-1510] Running: create_clock -period 10 -name default 
INFO: [HLS 200-1510] Running: set_directive_top -name axi_slave_lite_reg axi_slave_lite_reg 
INFO: [HLS 200-1510] Running: set_directive_protocol -mode fixed axi_slave_lite_reg/WAIT_FOR_READ 
INFO: [HLS 200-1510] Running: set_directive_protocol -mode fixed axi_slave_lite_reg/WAIT_FOR_BRESP 
INFO: [HLS 200-1510] Running: csynth_design 
INFO: [HLS 200-111] Finished File checks and directory preparation: CPU user time: 0 seconds. CPU system time: 0 seconds. Elapsed time: 0 seconds; current allocated memory: 90.595 MB.
INFO: [HLS 200-10] Analyzing design file 'axi_slave_lite_reg.cpp' ... 
INFO: [HLS 200-111] Finished Source Code Analysis and Preprocessing: CPU user time: 2.73 seconds. CPU system time: 0.51 seconds. Elapsed time: 2.68 seconds; current allocated memory: 91.776 MB.
INFO: [HLS 200-777] Using interface defaults for 'Vivado' flow target.
INFO: [HLS 214-210] Disaggregating variable 's_ar_copy'
INFO: [HLS 214-210] Disaggregating variable 's_aw_copy'
INFO: [HLS 214-210] Disaggregating variable 's_b_copy'
INFO: [HLS 214-210] Disaggregating variable 's_r_copy'
INFO: [HLS 214-210] Disaggregating variable 's_w_copy'
INFO: [HLS 214-131] Inlining function '_llvm.fpga.pack.none.i64.s_struct.ap_uints' into 'axi_slave_lite_reg(AxiArPkt&, AxiAwPkt&, AxiBPkt&, AxiRPkt&, AxiWPkt&)' (axi_slave_lite_reg.cpp:38:15)
INFO: [HLS 200-111] Finished Compiling Optimization and Transform: CPU user time: 2.61 seconds. CPU system time: 0.38 seconds. Elapsed time: 2.99 seconds; current allocated memory: 93.602 MB.
INFO: [HLS 200-111] Finished Checking Pragmas: CPU user time: 0 seconds. CPU system time: 0 seconds. Elapsed time: 0 seconds; current allocated memory: 93.604 MB.
INFO: [HLS 200-10] Starting code transformations ...
INFO: [HLS 200-111] Finished Standard Transforms: CPU user time: 0.04 seconds. CPU system time: 0.01 seconds. Elapsed time: 0.04 seconds; current allocated memory: 99.971 MB.
INFO: [HLS 200-10] Checking synthesizability ...
INFO: [HLS 200-111] Finished Checking Synthesizability: CPU user time: 0.07 seconds. CPU system time: 0.02 seconds. Elapsed time: 0.09 seconds; current allocated memory: 108.087 MB.
INFO: [XFORM 203-102] Automatically partitioning small array 'inner_reg.V' completely based on array size.
INFO: [XFORM 203-101] Partitioning array 'inner_reg.V' in dimension 1 completely.
INFO: [XFORM 203-603] Inlining function 'aesl_mux_load.4i64P0A.i2' into 'axi_slave_lite_reg' (axi_slave_lite_reg.cpp:38).
INFO: [HLS 200-111] Finished Loop, function and other optimizations: CPU user time: 0.22 seconds. CPU system time: 0.01 seconds. Elapsed time: 0.23 seconds; current allocated memory: 136.701 MB.
INFO: [HLS 200-111] Finished Architecture Synthesis: CPU user time: 0.11 seconds. CPU system time: 0.01 seconds. Elapsed time: 0.12 seconds; current allocated memory: 134.223 MB.
INFO: [HLS 200-10] Starting hardware synthesis ...
INFO: [HLS 200-10] Synthesizing 'axi_slave_lite_reg' ...
INFO: [HLS 200-10] ----------------------------------------------------------------
INFO: [HLS 200-42] -- Implementing module 'axi_slave_lite_reg' 
INFO: [HLS 200-10] ----------------------------------------------------------------
INFO: [SCHED 204-11] Starting scheduling ...
INFO: [SCHED 204-61] Pipelining function 'axi_slave_lite_reg'.
WARNING: [HLS 200-880] The II Violation in module 'axi_slave_lite_reg' (function 'axi_slave_lite_reg'): Unable to enforce a carried dependence constraint (II = 1, distance = 1, offset = 0) between 'store' operation ('inner_reg_V_3_write_ln66', axi_slave_lite_reg.cpp:66) of variable 's_w_wdata_read', axi_slave_lite_reg.cpp:66 on static variable 'inner_reg_V_3' and 'load' operation ('inner_reg_V_3_load', aesl_mux_load.4i64P0A.i2:7->axi_slave_lite_reg.cpp:38) on static variable 'inner_reg_V_3'.
WARNING: [SCHED 204-63] Unable to schedule wire write on port 's_ar_arready' (axi_slave_lite_reg.cpp:48) within the last cycle (II = 2).
Please consider increasing the initiation interval of the pipeline.
WARNING: [SCHED 204-63] Unable to schedule wire read on port 's_aw_awvalid' within the first 2 cycles (II = 2).
Please consider increasing the target initiation interval of the pipeline.
INFO: [HLS 200-1470] Pipelining result : Target II = 1, Final II = 2, Depth = 5, function 'axi_slave_lite_reg'
INFO: [SCHED 204-11] Finished scheduling.
INFO: [HLS 200-111] Finished Scheduling: CPU user time: 0.01 seconds. CPU system time: 0.02 seconds. Elapsed time: 0.03 seconds; current allocated memory: 134.729 MB.
INFO: [BIND 205-100] Starting micro-architecture generation ...
INFO: [BIND 205-101] Performing variable lifetime analysis.
INFO: [BIND 205-101] Exploring resource sharing.
INFO: [BIND 205-101] Binding ...
INFO: [BIND 205-100] Finished micro-architecture generation.
INFO: [HLS 200-111] Finished Binding: CPU user time: 0.01 seconds. CPU system time: 0.02 seconds. Elapsed time: 0.03 seconds; current allocated memory: 135.202 MB.
INFO: [HLS 200-10] ----------------------------------------------------------------
INFO: [HLS 200-10] -- Generating RTL for module 'axi_slave_lite_reg' 
INFO: [HLS 200-10] ----------------------------------------------------------------
INFO: [RTGEN 206-500] Setting interface mode on port 'axi_slave_lite_reg/s_ar_araddr' to 'ap_none'.
INFO: [RTGEN 206-500] Setting interface mode on port 'axi_slave_lite_reg/s_ar_arprot' to 'ap_none'.
INFO: [RTGEN 206-500] Setting interface mode on port 'axi_slave_lite_reg/s_ar_arready' to 'ap_none'.
WARNING: [RTGEN 206-101] Port 's_ar_arready' with mode 'ap_none' may require an associated data valid signal to correctly communicate with other blocks or a test bench; automatic C/RTL co-simulation may not be able to verify such a port.
WARNING: [RTGEN 206-101] Pointer port 's_ar_arready' in function pipeline may not be correctly catched for comparison in automatic C/RTL co-simulation; option '-last_write_notify' is recommended for 'set_directive_interface' on this port.
INFO: [RTGEN 206-500] Setting interface mode on port 'axi_slave_lite_reg/s_ar_arvalid' to 'ap_none'.
INFO: [RTGEN 206-500] Setting interface mode on port 'axi_slave_lite_reg/s_aw_awaddr' to 'ap_none'.
INFO: [RTGEN 206-500] Setting interface mode on port 'axi_slave_lite_reg/s_aw_awprot' to 'ap_none'.
INFO: [RTGEN 206-500] Setting interface mode on port 'axi_slave_lite_reg/s_aw_awready' to 'ap_none'.
WARNING: [RTGEN 206-101] Port 's_aw_awready' with mode 'ap_none' may require an associated data valid signal to correctly communicate with other blocks or a test bench; automatic C/RTL co-simulation may not be able to verify such a port.
WARNING: [RTGEN 206-101] Pointer port 's_aw_awready' in function pipeline may not be correctly catched for comparison in automatic C/RTL co-simulation; option '-last_write_notify' is recommended for 'set_directive_interface' on this port.
INFO: [RTGEN 206-500] Setting interface mode on port 'axi_slave_lite_reg/s_aw_awvalid' to 'ap_none'.
INFO: [RTGEN 206-500] Setting interface mode on port 'axi_slave_lite_reg/s_b_bresp' to 'ap_none'.
WARNING: [RTGEN 206-101] Port 's_b_bresp' with mode 'ap_none' may require an associated data valid signal to correctly communicate with other blocks or a test bench; automatic C/RTL co-simulation may not be able to verify such a port.
INFO: [RTGEN 206-500] Setting interface mode on port 'axi_slave_lite_reg/s_b_bready' to 'ap_none'.
INFO: [RTGEN 206-500] Setting interface mode on port 'axi_slave_lite_reg/s_b_bvalid' to 'ap_none'.
WARNING: [RTGEN 206-101] Port 's_b_bvalid' with mode 'ap_none' may require an associated data valid signal to correctly communicate with other blocks or a test bench; automatic C/RTL co-simulation may not be able to verify such a port.
INFO: [RTGEN 206-500] Setting interface mode on port 'axi_slave_lite_reg/s_r_rdata' to 'ap_none'.
WARNING: [RTGEN 206-101] Port 's_r_rdata' with mode 'ap_none' may require an associated data valid signal to correctly communicate with other blocks or a test bench; automatic C/RTL co-simulation may not be able to verify such a port.
==============================================================
Vitis HLS - High-Level Synthesis from C, C++ and OpenCL v2020.2 (64-bit)
Copyright 1986-2020 Xilinx, Inc. All Rights Reserved.
==============================================================
INFO: [SYN 201-201] Setting up clock 'default' with a period of 10ns.
INFO: [HLS 200-10] Setting target device to 'xczu19eg-ffvc1760-2-e'
INFO: [HLS 200-1505] Using flow_target 'vivado'
INFO: [HLS 200-1510] Running: set_part xczu19eg-ffvc1760-2-e 
INFO: [HLS 200-1510] Running: create_clock -period 10 -name default 
INFO: [HLS 200-1510] Running: set_directive_top -name axi_slave_lite_reg axi_slave_lite_reg 
INFO: [HLS 200-1510] Running: set_directive_protocol -mode fixed axi_slave_lite_reg/WAIT_FOR_READ 
INFO: [HLS 200-1510] Running: set_directive_protocol -mode fixed axi_slave_lite_reg/WAIT_FOR_BRESP 
INFO: [HLS 200-1510] Running: csynth_design 
INFO: [HLS 200-111] Finished File checks and directory preparation: CPU user time: 0.01 seconds. CPU system time: 0.01 seconds. Elapsed time: 0 seconds; current allocated memory: 90.595 MB.
INFO: [HLS 200-10] Analyzing design file 'axi_slave_lite_reg.cpp' ... 
INFO: [HLS 200-111] Finished Source Code Analysis and Preprocessing: CPU user time: 2.69 seconds. CPU system time: 0.59 seconds. Elapsed time: 2.69 seconds; current allocated memory: 91.775 MB.
INFO: [HLS 200-777] Using interface defaults for 'Vivado' flow target.
INFO: [HLS 214-210] Disaggregating variable 's_ar_copy'
INFO: [HLS 214-210] Disaggregating variable 's_aw_copy'
INFO: [HLS 214-210] Disaggregating variable 's_b_copy'
INFO: [HLS 214-210] Disaggregating variable 's_r_copy'
INFO: [HLS 214-210] Disaggregating variable 's_w_copy'
INFO: [HLS 214-131] Inlining function '_llvm.fpga.pack.none.i64.s_struct.ap_uints' into 'axi_slave_lite_reg(AxiArPkt&, AxiAwPkt&, AxiBPkt&, AxiRPkt&, AxiWPkt&)' (axi_slave_lite_reg.cpp:38:15)
INFO: [HLS 200-111] Finished Compiling Optimization and Transform: CPU user time: 2.59 seconds. CPU system time: 0.41 seconds. Elapsed time: 3 seconds; current allocated memory: 93.601 MB.
INFO: [HLS 200-111] Finished Checking Pragmas: CPU user time: 0 seconds. CPU system time: 0 seconds. Elapsed time: 0 seconds; current allocated memory: 93.602 MB.
INFO: [HLS 200-10] Starting code transformations ...
INFO: [HLS 200-111] Finished Standard Transforms: CPU user time: 0.04 seconds. CPU system time: 0 seconds. Elapsed time: 0.05 seconds; current allocated memory: 99.970 MB.
INFO: [HLS 200-10] Checking synthesizability ...
INFO: [HLS 200-111] Finished Checking Synthesizability: CPU user time: 0.08 seconds. CPU system time: 0.01 seconds. Elapsed time: 0.09 seconds; current allocated memory: 108.089 MB.
INFO: [XFORM 203-102] Automatically partitioning small array 'inner_reg.V' completely based on array size.
INFO: [XFORM 203-101] Partitioning array 'inner_reg.V' in dimension 1 completely.
INFO: [XFORM 203-603] Inlining function 'aesl_mux_load.4i64P0A.i2' into 'axi_slave_lite_reg' (axi_slave_lite_reg.cpp:38).
INFO: [HLS 200-111] Finished Loop, function and other optimizations: CPU user time: 0.22 seconds. CPU system time: 0.02 seconds. Elapsed time: 0.23 seconds; current allocated memory: 136.702 MB.
INFO: [HLS 200-111] Finished Architecture Synthesis: CPU user time: 0.11 seconds. CPU system time: 0.01 seconds. Elapsed time: 0.12 seconds; current allocated memory: 134.215 MB.
INFO: [HLS 200-10] Starting hardware synthesis ...
INFO: [HLS 200-10] Synthesizing 'axi_slave_lite_reg' ...
INFO: [HLS 200-10] ----------------------------------------------------------------
INFO: [HLS 200-42] -- Implementing module 'axi_slave_lite_reg' 
INFO: [HLS 200-10] ----------------------------------------------------------------
INFO: [SCHED 204-11] Starting scheduling ...
INFO: [SCHED 204-61] Pipelining function 'axi_slave_lite_reg'.
WARNING: [SCHED 204-63] Unable to schedule wire write on port 's_ar_arready' (axi_slave_lite_reg.cpp:45) within the last cycle (II = 1).
Please consider increasing the initiation interval of the pipeline.
WARNING: [SCHED 204-63] Unable to schedule wire read on port 's_r_rready' within the first cycle (II = 1).
Please consider increasing the target initiation interval of the pipeline.
INFO: [HLS 200-1470] Pipelining result : Target II = 1, Final II = 1, Depth = 4, function 'axi_slave_lite_reg'
INFO: [SCHED 204-11] Finished scheduling.
INFO: [HLS 200-111] Finished Scheduling: CPU user time: 0.01 seconds. CPU system time: 0.03 seconds. Elapsed time: 0.03 seconds; current allocated memory: 134.721 MB.
INFO: [BIND 205-100] Starting micro-architecture generation ...
INFO: [BIND 205-101] Performing variable lifetime analysis.
INFO: [BIND 205-101] Exploring resource sharing.
INFO: [BIND 205-101] Binding ...
INFO: [BIND 205-100] Finished micro-architecture generation.
INFO: [HLS 200-111] Finished Binding: CPU user time: 0.01 seconds. CPU system time: 0.01 seconds. Elapsed time: 0.03 seconds; current allocated memory: 135.192 MB.
INFO: [HLS 200-10] ----------------------------------------------------------------
INFO: [HLS 200-10] -- Generating RTL for module 'axi_slave_lite_reg' 
INFO: [HLS 200-10] ----------------------------------------------------------------
INFO: [RTGEN 206-500] Setting interface mode on port 'axi_slave_lite_reg/s_ar_araddr' to 'ap_none'.
INFO: [RTGEN 206-500] Setting interface mode on port 'axi_slave_lite_reg/s_ar_arprot' to 'ap_none'.
INFO: [RTGEN 206-500] Setting interface mode on port 'axi_slave_lite_reg/s_ar_arready' to 'ap_none'.
WARNING: [RTGEN 206-101] Port 's_ar_arready' with mode 'ap_none' may require an associated data valid signal to correctly communicate with other blocks or a test bench; automatic C/RTL co-simulation may not be able to verify such a port.
WARNING: [RTGEN 206-101] Pointer port 's_ar_arready' in function pipeline may not be correctly catched for comparison in automatic C/RTL co-simulation; option '-last_write_notify' is recommended for 'set_directive_interface' on this port.
INFO: [RTGEN 206-500] Setting interface mode on port 'axi_slave_lite_reg/s_ar_arvalid' to 'ap_none'.
INFO: [RTGEN 206-500] Setting interface mode on port 'axi_slave_lite_reg/s_aw_awaddr' to 'ap_none'.
INFO: [RTGEN 206-500] Setting interface mode on port 'axi_slave_lite_reg/s_aw_awprot' to 'ap_none'.
INFO: [RTGEN 206-500] Setting interface mode on port 'axi_slave_lite_reg/s_aw_awready' to 'ap_none'.
WARNING: [RTGEN 206-101] Port 's_aw_awready' with mode 'ap_none' may require an associated data valid signal to correctly communicate with other blocks or a test bench; automatic C/RTL co-simulation may not be able to verify such a port.
WARNING: [RTGEN 206-101] Pointer port 's_aw_awready' in function pipeline may not be correctly catched for comparison in automatic C/RTL co-simulation; option '-last_write_notify' is recommended for 'set_directive_interface' on this port.
INFO: [RTGEN 206-500] Setting interface mode on port 'axi_slave_lite_reg/s_aw_awvalid' to 'ap_none'.
INFO: [RTGEN 206-500] Setting interface mode on port 'axi_slave_lite_reg/s_b_bresp' to 'ap_none'.
WARNING: [RTGEN 206-101] Port 's_b_bresp' with mode 'ap_none' may require an associated data valid signal to correctly communicate with other blocks or a test bench; automatic C/RTL co-simulation may not be able to verify such a port.
WARNING: [RTGEN 206-101] Pointer port 's_b_bresp' in function pipeline may not be correctly catched for comparison in automatic C/RTL co-simulation; option '-last_write_notify' is recommended for 'set_directive_interface' on this port.
INFO: [RTGEN 206-500] Setting interface mode on port 'axi_slave_lite_reg/s_b_bready' to 'ap_none'.
INFO: [RTGEN 206-500] Setting interface mode on port 'axi_slave_lite_reg/s_b_bvalid' to 'ap_none'.
WARNING: [RTGEN 206-101] Port 's_b_bvalid' with mode 'ap_none' may require an associated data valid signal to correctly communicate with other blocks or a test bench; automatic C/RTL co-simulation may not be able to verify such a port.
INFO: [RTGEN 206-500] Setting interface mode on port 'axi_slave_lite_reg/s_r_rdata' to 'ap_none'.
WARNING: [RTGEN 206-101] Port 's_r_rdata' with mode 'ap_none' may require an associated data valid signal to correctly communicate with other blocks or a test bench; automatic C/RTL co-simulation may not be able to verify such a port.
WARNING: [RTGEN 206-101] Pointer port 's_r_rdata' in function pipeline may not be correctly catched for comparison in automatic C/RTL co-simulation; option '-last_write_notify' is recommended for 'set_directive_interface' on this port.
==============================================================
Vitis HLS - High-Level Synthesis from C, C++ and OpenCL v2020.2 (64-bit)
Copyright 1986-2020 Xilinx, Inc. All Rights Reserved.
==============================================================
INFO: [SYN 201-201] Setting up clock 'default' with a period of 10ns.
INFO: [HLS 200-10] Setting target device to 'xczu19eg-ffvc1760-2-e'
INFO: [HLS 200-1505] Using flow_target 'vivado'
INFO: [HLS 200-1510] Running: set_part xczu19eg-ffvc1760-2-e 
INFO: [HLS 200-1510] Running: create_clock -period 10 -name default 
INFO: [HLS 200-1510] Running: set_directive_top -name axi_slave_lite_reg axi_slave_lite_reg 
INFO: [HLS 200-1510] Running: set_directive_protocol -mode fixed axi_slave_lite_reg/WAIT_FOR_READ 
INFO: [HLS 200-1510] Running: set_directive_protocol -mode fixed axi_slave_lite_reg/WAIT_FOR_BRESP 
INFO: [HLS 200-1510] Running: csynth_design 
INFO: [HLS 200-111] Finished File checks and directory preparation: CPU user time: 0.02 seconds. CPU system time: 0 seconds. Elapsed time: 0 seconds; current allocated memory: 90.595 MB.
INFO: [HLS 200-10] Analyzing design file 'axi_slave_lite_reg.cpp' ... 
INFO: [HLS 200-111] Finished Source Code Analysis and Preprocessing: CPU user time: 2.84 seconds. CPU system time: 0.58 seconds. Elapsed time: 2.91 seconds; current allocated memory: 91.776 MB.
INFO: [HLS 200-777] Using interface defaults for 'Vivado' flow target.
INFO: [HLS 214-210] Disaggregating variable 's_ar_copy'
INFO: [HLS 214-210] Disaggregating variable 's_aw_copy'
INFO: [HLS 214-210] Disaggregating variable 's_b_copy'
INFO: [HLS 214-210] Disaggregating variable 's_r_copy'
INFO: [HLS 214-210] Disaggregating variable 's_w_copy'
INFO: [HLS 214-131] Inlining function '_llvm.fpga.pack.none.i64.s_struct.ap_uints' into 'axi_slave_lite_reg(AxiArPkt&, AxiAwPkt&, AxiBPkt&, AxiRPkt&, AxiWPkt&)' (axi_slave_lite_reg.cpp:38:15)
INFO: [HLS 200-111] Finished Compiling Optimization and Transform: CPU user time: 2.7 seconds. CPU system time: 0.45 seconds. Elapsed time: 3.16 seconds; current allocated memory: 93.603 MB.
INFO: [HLS 200-111] Finished Checking Pragmas: CPU user time: 0 seconds. CPU system time: 0 seconds. Elapsed time: 0 seconds; current allocated memory: 93.604 MB.
INFO: [HLS 200-10] Starting code transformations ...
INFO: [HLS 200-111] Finished Standard Transforms: CPU user time: 0.04 seconds. CPU system time: 0.01 seconds. Elapsed time: 0.04 seconds; current allocated memory: 99.972 MB.
INFO: [HLS 200-10] Checking synthesizability ...
INFO: [HLS 200-111] Finished Checking Synthesizability: CPU user time: 0.06 seconds. CPU system time: 0.02 seconds. Elapsed time: 0.08 seconds; current allocated memory: 108.086 MB.
INFO: [XFORM 203-102] Automatically partitioning small array 'inner_reg.V' completely based on array size.
INFO: [XFORM 203-101] Partitioning array 'inner_reg.V' in dimension 1 completely.
INFO: [XFORM 203-603] Inlining function 'aesl_mux_load.4i64P0A.i2' into 'axi_slave_lite_reg' (axi_slave_lite_reg.cpp:38).
INFO: [HLS 200-111] Finished Loop, function and other optimizations: CPU user time: 0.21 seconds. CPU system time: 0.02 seconds. Elapsed time: 0.24 seconds; current allocated memory: 136.698 MB.
INFO: [HLS 200-111] Finished Architecture Synthesis: CPU user time: 0.1 seconds. CPU system time: 0.02 seconds. Elapsed time: 0.12 seconds; current allocated memory: 134.221 MB.
INFO: [HLS 200-10] Starting hardware synthesis ...
INFO: [HLS 200-10] Synthesizing 'axi_slave_lite_reg' ...
INFO: [HLS 200-10] ----------------------------------------------------------------
INFO: [HLS 200-42] -- Implementing module 'axi_slave_lite_reg' 
INFO: [HLS 200-10] ----------------------------------------------------------------
INFO: [SCHED 204-11] Starting scheduling ...
INFO: [SCHED 204-61] Pipelining function 'axi_slave_lite_reg'.
WARNING: [SCHED 204-63] Unable to schedule wire write on port 's_ar_arready' (axi_slave_lite_reg.cpp:46) within the last cycle (II = 1).
Please consider increasing the initiation interval of the pipeline.
WARNING: [SCHED 204-63] Unable to schedule wire read on port 's_r_rready' within the first cycle (II = 1).
Please consider increasing the target initiation interval of the pipeline.
INFO: [HLS 200-1470] Pipelining result : Target II = 1, Final II = 1, Depth = 4, function 'axi_slave_lite_reg'
INFO: [SCHED 204-11] Finished scheduling.
INFO: [HLS 200-111] Finished Scheduling: CPU user time: 0.01 seconds. CPU system time: 0.03 seconds. Elapsed time: 0.03 seconds; current allocated memory: 134.727 MB.
INFO: [BIND 205-100] Starting micro-architecture generation ...
INFO: [BIND 205-101] Performing variable lifetime analysis.
INFO: [BIND 205-101] Exploring resource sharing.
INFO: [BIND 205-101] Binding ...
INFO: [BIND 205-100] Finished micro-architecture generation.
INFO: [HLS 200-111] Finished Binding: CPU user time: 0 seconds. CPU system time: 0.02 seconds. Elapsed time: 0.02 seconds; current allocated memory: 135.198 MB.
INFO: [HLS 200-10] ----------------------------------------------------------------
INFO: [HLS 200-10] -- Generating RTL for module 'axi_slave_lite_reg' 
INFO: [HLS 200-10] ----------------------------------------------------------------
INFO: [RTGEN 206-500] Setting interface mode on port 'axi_slave_lite_reg/s_ar_araddr' to 'ap_none'.
INFO: [RTGEN 206-500] Setting interface mode on port 'axi_slave_lite_reg/s_ar_arprot' to 'ap_none'.
INFO: [RTGEN 206-500] Setting interface mode on port 'axi_slave_lite_reg/s_ar_arready' to 'ap_none'.
WARNING: [RTGEN 206-101] Port 's_ar_arready' with mode 'ap_none' may require an associated data valid signal to correctly communicate with other blocks or a test bench; automatic C/RTL co-simulation may not be able to verify such a port.
WARNING: [RTGEN 206-101] Pointer port 's_ar_arready' in function pipeline may not be correctly catched for comparison in automatic C/RTL co-simulation; option '-last_write_notify' is recommended for 'set_directive_interface' on this port.
INFO: [RTGEN 206-500] Setting interface mode on port 'axi_slave_lite_reg/s_ar_arvalid' to 'ap_none'.
INFO: [RTGEN 206-500] Setting interface mode on port 'axi_slave_lite_reg/s_aw_awaddr' to 'ap_none'.
INFO: [RTGEN 206-500] Setting interface mode on port 'axi_slave_lite_reg/s_aw_awprot' to 'ap_none'.
INFO: [RTGEN 206-500] Setting interface mode on port 'axi_slave_lite_reg/s_aw_awready' to 'ap_none'.
WARNING: [RTGEN 206-101] Port 's_aw_awready' with mode 'ap_none' may require an associated data valid signal to correctly communicate with other blocks or a test bench; automatic C/RTL co-simulation may not be able to verify such a port.
WARNING: [RTGEN 206-101] Pointer port 's_aw_awready' in function pipeline may not be correctly catched for comparison in automatic C/RTL co-simulation; option '-last_write_notify' is recommended for 'set_directive_interface' on this port.
INFO: [RTGEN 206-500] Setting interface mode on port 'axi_slave_lite_reg/s_aw_awvalid' to 'ap_none'.
INFO: [RTGEN 206-500] Setting interface mode on port 'axi_slave_lite_reg/s_b_bresp' to 'ap_none'.
WARNING: [RTGEN 206-101] Port 's_b_bresp' with mode 'ap_none' may require an associated data valid signal to correctly communicate with other blocks or a test bench; automatic C/RTL co-simulation may not be able to verify such a port.
WARNING: [RTGEN 206-101] Pointer port 's_b_bresp' in function pipeline may not be correctly catched for comparison in automatic C/RTL co-simulation; option '-last_write_notify' is recommended for 'set_directive_interface' on this port.
INFO: [RTGEN 206-500] Setting interface mode on port 'axi_slave_lite_reg/s_b_bready' to 'ap_none'.
INFO: [RTGEN 206-500] Setting interface mode on port 'axi_slave_lite_reg/s_b_bvalid' to 'ap_none'.
WARNING: [RTGEN 206-101] Port 's_b_bvalid' with mode 'ap_none' may require an associated data valid signal to correctly communicate with other blocks or a test bench; automatic C/RTL co-simulation may not be able to verify such a port.
INFO: [RTGEN 206-500] Setting interface mode on port 'axi_slave_lite_reg/s_r_rdata' to 'ap_none'.
WARNING: [RTGEN 206-101] Port 's_r_rdata' with mode 'ap_none' may require an associated data valid signal to correctly communicate with other blocks or a test bench; automatic C/RTL co-simulation may not be able to verify such a port.
WARNING: [RTGEN 206-101] Pointer port 's_r_rdata' in function pipeline may not be correctly catched for comparison in automatic C/RTL co-simulation; option '-last_write_notify' is recommended for 'set_directive_interface' on this port.
==============================================================
Vitis HLS - High-Level Synthesis from C, C++ and OpenCL v2020.2 (64-bit)
Copyright 1986-2020 Xilinx, Inc. All Rights Reserved.
==============================================================
==============================================================
Vitis HLS - High-Level Synthesis from C, C++ and OpenCL v2020.2 (64-bit)
Copyright 1986-2020 Xilinx, Inc. All Rights Reserved.
==============================================================
INFO: [SYN 201-201] Setting up clock 'default' with a period of 10ns.
INFO: [HLS 200-10] Setting target device to 'xczu19eg-ffvc1760-2-e'
INFO: [HLS 200-1505] Using flow_target 'vivado'
INFO: [HLS 200-1510] Running: set_part xczu19eg-ffvc1760-2-e 
INFO: [HLS 200-1510] Running: create_clock -period 10 -name default 
INFO: [HLS 200-1510] Running: set_directive_top -name axi_slave_lite_reg axi_slave_lite_reg 
INFO: [HLS 200-1510] Running: set_directive_protocol -mode fixed axi_slave_lite_reg/WAIT_FOR_READ 
INFO: [HLS 200-1510] Running: set_directive_protocol -mode fixed axi_slave_lite_reg/WAIT_FOR_BRESP 
INFO: [HLS 200-1510] Running: csynth_design 
INFO: [HLS 200-111] Finished File checks and directory preparation: CPU user time: 0 seconds. CPU system time: 0.01 seconds. Elapsed time: 0 seconds; current allocated memory: 90.595 MB.
INFO: [HLS 200-10] Analyzing design file 'axi_slave_lite_reg.cpp' ... 
INFO: [HLS 200-111] Finished Source Code Analysis and Preprocessing: CPU user time: 2.57 seconds. CPU system time: 1.05 seconds. Elapsed time: 2.98 seconds; current allocated memory: 91.760 MB.
INFO: [HLS 200-777] Using interface defaults for 'Vivado' flow target.
INFO: [HLS 214-210] Disaggregating variable 's_ar_copy'
INFO: [HLS 214-210] Disaggregating variable 's_aw_copy'
INFO: [HLS 214-210] Disaggregating variable 's_b_copy'
INFO: [HLS 214-210] Disaggregating variable 's_r_copy'
INFO: [HLS 214-210] Disaggregating variable 's_w_copy'
INFO: [HLS 214-131] Inlining function '_llvm.fpga.pack.none.i64.s_struct.ap_uints' into 'axi_slave_lite_reg_read(AxiArPkt&, AxiRPkt&) (.1)' (axi_slave_lite_reg.cpp:22:15)
INFO: [HLS 200-111] Finished Compiling Optimization and Transform: CPU user time: 2.62 seconds. CPU system time: 0.43 seconds. Elapsed time: 3.05 seconds; current allocated memory: 93.602 MB.
INFO: [HLS 200-111] Finished Checking Pragmas: CPU user time: 0 seconds. CPU system time: 0 seconds. Elapsed time: 0 seconds; current allocated memory: 93.604 MB.
INFO: [HLS 200-10] Starting code transformations ...
INFO: [HLS 200-111] Finished Standard Transforms: CPU user time: 0.03 seconds. CPU system time: 0.02 seconds. Elapsed time: 0.05 seconds; current allocated memory: 102.179 MB.
INFO: [HLS 200-10] Checking synthesizability ...
INFO: [HLS 200-111] Finished Checking Synthesizability: CPU user time: 0.1 seconds. CPU system time: 0 seconds. Elapsed time: 0.11 seconds; current allocated memory: 114.677 MB.
INFO: [XFORM 203-712] Applying dataflow to function 'axi_slave_lite_reg' (axi_slave_lite_reg.cpp:63:1), detected/extracted 2 process function(s): 
	 'axi_slave_lite_reg_write3'
	 'axi_slave_lite_reg_read'.
INFO: [HLS 200-111] Finished Loop, function and other optimizations: CPU user time: 0.23 seconds. CPU system time: 0.05 seconds. Elapsed time: 0.28 seconds; current allocated memory: 148.675 MB.
INFO: [HLS 200-472] Inferring partial write operation for 'inner_reg.V' (axi_slave_lite_reg.cpp:48:26)
WARNING: [HLS 200-1450] Process axi_slave_lite_reg_write3 has both a successor and writes an output to its caller (see the GUI dataflow viewer). This may lead to lower throughput. Consider copying this output via a successor process.
WARNING: [HLS 200-631] Ignoring ap_ctrl_none interface for axi_slave_lite_reg due to axi_slave_lite_reg_write3 with non-FIFO I/O
WARNING: [HLS 200-631] Ignoring ap_ctrl_none interface for axi_slave_lite_reg due to axi_slave_lite_reg_read with non-FIFO I/O
INFO: [HLS 200-111] Finished Architecture Synthesis: CPU user time: 0.15 seconds. CPU system time: 0.02 seconds. Elapsed time: 0.17 seconds; current allocated memory: 166.569 MB.
INFO: [HLS 200-10] Starting hardware synthesis ...
INFO: [HLS 200-10] Synthesizing 'axi_slave_lite_reg' ...
INFO: [HLS 200-10] ----------------------------------------------------------------
INFO: [HLS 200-42] -- Implementing module 'axi_slave_lite_reg_write3' 
INFO: [HLS 200-10] ----------------------------------------------------------------
INFO: [SCHED 204-11] Starting scheduling ...
INFO: [SCHED 204-11] Finished scheduling.
INFO: [HLS 200-111] Finished Scheduling: CPU user time: 0 seconds. CPU system time: 0.02 seconds. Elapsed time: 0.03 seconds; current allocated memory: 166.929 MB.
INFO: [BIND 205-100] Starting micro-architecture generation ...
INFO: [BIND 205-101] Performing variable lifetime analysis.
INFO: [BIND 205-101] Exploring resource sharing.
INFO: [BIND 205-101] Binding ...
INFO: [BIND 205-100] Finished micro-architecture generation.
INFO: [HLS 200-111] Finished Binding: CPU user time: 0.01 seconds. CPU system time: 0.01 seconds. Elapsed time: 0.02 seconds; current allocated memory: 167.141 MB.
INFO: [HLS 200-10] ----------------------------------------------------------------
INFO: [HLS 200-42] -- Implementing module 'axi_slave_lite_reg_read' 
INFO: [HLS 200-10] ----------------------------------------------------------------
INFO: [SCHED 204-11] Starting scheduling ...
INFO: [SCHED 204-11] Finished scheduling.
INFO: [HLS 200-111] Finished Scheduling: CPU user time: 0.01 seconds. CPU system time: 0.01 seconds. Elapsed time: 0.02 seconds; current allocated memory: 167.310 MB.
INFO: [BIND 205-100] Starting micro-architecture generation ...
INFO: [BIND 205-101] Performing variable lifetime analysis.
INFO: [BIND 205-101] Exploring resource sharing.
INFO: [BIND 205-101] Binding ...
INFO: [BIND 205-100] Finished micro-architecture generation.
INFO: [HLS 200-111] Finished Binding: CPU user time: 0.01 seconds. CPU system time: 0.01 seconds. Elapsed time: 0.02 seconds; current allocated memory: 167.479 MB.
INFO: [HLS 200-10] ----------------------------------------------------------------
INFO: [HLS 200-42] -- Implementing module 'axi_slave_lite_reg' 
INFO: [HLS 200-10] ----------------------------------------------------------------
INFO: [SCHED 204-11] Starting scheduling ...
INFO: [SCHED 204-11] Finished scheduling.
INFO: [HLS 200-111] Finished Scheduling: CPU user time: 0.02 seconds. CPU system time: 0 seconds. Elapsed time: 0.02 seconds; current allocated memory: 167.645 MB.
INFO: [BIND 205-100] Starting micro-architecture generation ...
INFO: [BIND 205-101] Performing variable lifetime analysis.
INFO: [BIND 205-101] Exploring resource sharing.
INFO: [BIND 205-101] Binding ...
INFO: [BIND 205-100] Finished micro-architecture generation.
INFO: [HLS 200-111] Finished Binding: CPU user time: 0.02 seconds. CPU system time: 0 seconds. Elapsed time: 0.02 seconds; current allocated memory: 167.953 MB.
INFO: [HLS 200-10] ----------------------------------------------------------------
INFO: [HLS 200-10] -- Generating RTL for module 'axi_slave_lite_reg_write3' 
INFO: [HLS 200-10] ----------------------------------------------------------------
INFO: [RTGEN 206-100] Finished creating RTL model for 'axi_slave_lite_reg_write3'.
INFO: [HLS 200-111] Finished Creating RTL model: CPU user time: 0.01 seconds. CPU system time: 0.01 seconds. Elapsed time: 0.01 seconds; current allocated memory: 168.281 MB.
INFO: [HLS 200-10] ----------------------------------------------------------------
INFO: [HLS 200-10] -- Generating RTL for module 'axi_slave_lite_reg_read' 
INFO: [HLS 200-10] ----------------------------------------------------------------
INFO: [RTGEN 206-100] Finished creating RTL model for 'axi_slave_lite_reg_read'.
INFO: [HLS 200-111] Finished Creating RTL model: CPU user time: 0.02 seconds. CPU system time: 0.01 seconds. Elapsed time: 0.03 seconds; current allocated memory: 169.332 MB.
INFO: [HLS 200-10] ----------------------------------------------------------------
INFO: [HLS 200-10] -- Generating RTL for module 'axi_slave_lite_reg' 
INFO: [HLS 200-10] ----------------------------------------------------------------
INFO: [RTGEN 206-500] Setting interface mode on port 'axi_slave_lite_reg/s_ar_araddr' to 'ap_none'.
INFO: [RTGEN 206-500] Setting interface mode on port 'axi_slave_lite_reg/s_ar_arprot' to 'ap_none'.
INFO: [RTGEN 206-500] Setting interface mode on port 'axi_slave_lite_reg/s_ar_arready' to 'ap_none'.
WARNING: [RTGEN 206-101] Port 's_ar_arready' with mode 'ap_none' may require an associated data valid signal to correctly communicate with other blocks or a test bench; automatic C/RTL co-simulation may not be able to verify such a port.
==============================================================
Vitis HLS - High-Level Synthesis from C, C++ and OpenCL v2020.2 (64-bit)
Copyright 1986-2020 Xilinx, Inc. All Rights Reserved.
==============================================================
==============================================================
Vitis HLS - High-Level Synthesis from C, C++ and OpenCL v2020.2 (64-bit)
Copyright 1986-2020 Xilinx, Inc. All Rights Reserved.
==============================================================
==============================================================
Vitis HLS - High-Level Synthesis from C, C++ and OpenCL v2020.2 (64-bit)
Copyright 1986-2020 Xilinx, Inc. All Rights Reserved.
==============================================================
==============================================================
Vitis HLS - High-Level Synthesis from C, C++ and OpenCL v2020.2 (64-bit)
Copyright 1986-2020 Xilinx, Inc. All Rights Reserved.
==============================================================
INFO: [SYN 201-201] Setting up clock 'default' with a period of 10ns.
INFO: [HLS 200-10] Setting target device to 'xczu19eg-ffvc1760-2-e'
INFO: [HLS 200-1505] Using flow_target 'vivado'
INFO: [HLS 200-1510] Running: set_part xczu19eg-ffvc1760-2-e 
INFO: [HLS 200-1510] Running: create_clock -period 10 -name default 
INFO: [HLS 200-1510] Running: set_directive_top -name axi_slave_lite_reg axi_slave_lite_reg 
INFO: [HLS 200-1510] Running: set_directive_protocol -mode fixed axi_slave_lite_reg/WAIT_FOR_READ 
INFO: [HLS 200-1510] Running: set_directive_protocol -mode fixed axi_slave_lite_reg/WAIT_FOR_BRESP 
INFO: [HLS 200-1510] Running: csynth_design 
INFO: [HLS 200-111] Finished File checks and directory preparation: CPU user time: 0 seconds. CPU system time: 0.01 seconds. Elapsed time: 0.01 seconds; current allocated memory: 90.595 MB.
INFO: [HLS 200-10] Analyzing design file 'axi_slave_lite_reg.cpp' ... 
INFO: [HLS 200-111] Finished Source Code Analysis and Preprocessing: CPU user time: 2.8 seconds. CPU system time: 1.15 seconds. Elapsed time: 3.19 seconds; current allocated memory: 91.759 MB.
INFO: [HLS 200-777] Using interface defaults for 'Vivado' flow target.
INFO: [HLS 214-210] Disaggregating variable 's_ar_copy'
INFO: [HLS 214-210] Disaggregating variable 's_aw_copy'
INFO: [HLS 214-210] Disaggregating variable 's_b_copy'
INFO: [HLS 214-210] Disaggregating variable 's_r_copy'
INFO: [HLS 214-210] Disaggregating variable 's_w_copy'
INFO: [HLS 214-131] Inlining function '_llvm.fpga.pack.none.i64.s_struct.ap_uints' into 'axi_slave_lite_reg_read(AxiArPkt&, AxiRPkt&, ap_uint<2>&) (.1)' (axi_slave_lite_reg.cpp:23:15)
INFO: [HLS 200-111] Finished Compiling Optimization and Transform: CPU user time: 2.84 seconds. CPU system time: 0.47 seconds. Elapsed time: 3.3 seconds; current allocated memory: 93.743 MB.
INFO: [HLS 200-111] Finished Checking Pragmas: CPU user time: 0 seconds. CPU system time: 0 seconds. Elapsed time: 0 seconds; current allocated memory: 93.745 MB.
INFO: [HLS 200-10] Starting code transformations ...
INFO: [HLS 200-111] Finished Standard Transforms: CPU user time: 0.04 seconds. CPU system time: 0.01 seconds. Elapsed time: 0.06 seconds; current allocated memory: 101.901 MB.
INFO: [HLS 200-10] Checking synthesizability ...
INFO: [HLS 200-111] Finished Checking Synthesizability: CPU user time: 0.12 seconds. CPU system time: 0.02 seconds. Elapsed time: 0.14 seconds; current allocated memory: 113.399 MB.
INFO: [HLS 200-111] Finished Loop, function and other optimizations: CPU user time: 0.24 seconds. CPU system time: 0.03 seconds. Elapsed time: 0.27 seconds; current allocated memory: 146.104 MB.
WARNING: [ANALYSIS 214-52] Found false inter dependency for variable 'inner_reg.V'.
INFO: [HLS 200-472] Inferring partial write operation for 'inner_reg.V' (axi_slave_lite_reg.cpp:93:19)
INFO: [HLS 200-111] Finished Architecture Synthesis: CPU user time: 0.13 seconds. CPU system time: 0.02 seconds. Elapsed time: 0.15 seconds; current allocated memory: 163.601 MB.
INFO: [HLS 200-10] Starting hardware synthesis ...
INFO: [HLS 200-10] Synthesizing 'axi_slave_lite_reg' ...
INFO: [HLS 200-10] ----------------------------------------------------------------
INFO: [HLS 200-42] -- Implementing module 'axi_slave_lite_reg_read' 
INFO: [HLS 200-10] ----------------------------------------------------------------
INFO: [SCHED 204-11] Starting scheduling ...
INFO: [SCHED 204-11] Finished scheduling.
INFO: [HLS 200-111] Finished Scheduling: CPU user time: 0 seconds. CPU system time: 0.01 seconds. Elapsed time: 0.01 seconds; current allocated memory: 163.845 MB.
INFO: [BIND 205-100] Starting micro-architecture generation ...
INFO: [BIND 205-101] Performing variable lifetime analysis.
INFO: [BIND 205-101] Exploring resource sharing.
INFO: [BIND 205-101] Binding ...
INFO: [BIND 205-100] Finished micro-architecture generation.
INFO: [HLS 200-111] Finished Binding: CPU user time: 0.01 seconds. CPU system time: 0 seconds. Elapsed time: 0.02 seconds; current allocated memory: 164.027 MB.
INFO: [HLS 200-10] ----------------------------------------------------------------
INFO: [HLS 200-42] -- Implementing module 'axi_slave_lite_reg_write' 
INFO: [HLS 200-10] ----------------------------------------------------------------
INFO: [SCHED 204-11] Starting scheduling ...
INFO: [SCHED 204-11] Finished scheduling.
INFO: [HLS 200-111] Finished Scheduling: CPU user time: 0 seconds. CPU system time: 0.01 seconds. Elapsed time: 0.01 seconds; current allocated memory: 164.175 MB.
INFO: [BIND 205-100] Starting micro-architecture generation ...
INFO: [BIND 205-101] Performing variable lifetime analysis.
INFO: [BIND 205-101] Exploring resource sharing.
INFO: [BIND 205-101] Binding ...
INFO: [BIND 205-100] Finished micro-architecture generation.
INFO: [HLS 200-111] Finished Binding: CPU user time: 0 seconds. CPU system time: 0.02 seconds. Elapsed time: 0.01 seconds; current allocated memory: 164.344 MB.
INFO: [HLS 200-10] ----------------------------------------------------------------
INFO: [HLS 200-42] -- Implementing module 'axi_slave_lite_reg' 
INFO: [HLS 200-10] ----------------------------------------------------------------
INFO: [SCHED 204-11] Starting scheduling ...
INFO: [SCHED 204-11] Finished scheduling.
INFO: [HLS 200-111] Finished Scheduling: CPU user time: 0.01 seconds. CPU system time: 0.01 seconds. Elapsed time: 0.02 seconds; current allocated memory: 164.519 MB.
INFO: [BIND 205-100] Starting micro-architecture generation ...
INFO: [BIND 205-101] Performing variable lifetime analysis.
INFO: [BIND 205-101] Exploring resource sharing.
INFO: [BIND 205-101] Binding ...
INFO: [BIND 205-100] Finished micro-architecture generation.
INFO: [HLS 200-111] Finished Binding: CPU user time: 0.01 seconds. CPU system time: 0.01 seconds. Elapsed time: 0.02 seconds; current allocated memory: 164.815 MB.
INFO: [HLS 200-10] ----------------------------------------------------------------
INFO: [HLS 200-10] -- Generating RTL for module 'axi_slave_lite_reg_read' 
INFO: [HLS 200-10] ----------------------------------------------------------------
INFO: [RTGEN 206-100] Finished creating RTL model for 'axi_slave_lite_reg_read'.
INFO: [HLS 200-111] Finished Creating RTL model: CPU user time: 0.01 seconds. CPU system time: 0 seconds. Elapsed time: 0.01 seconds; current allocated memory: 165.077 MB.
INFO: [HLS 200-10] ----------------------------------------------------------------
INFO: [HLS 200-10] -- Generating RTL for module 'axi_slave_lite_reg_write' 
INFO: [HLS 200-10] ----------------------------------------------------------------
INFO: [RTGEN 206-100] Finished creating RTL model for 'axi_slave_lite_reg_write'.
INFO: [HLS 200-111] Finished Creating RTL model: CPU user time: 0.01 seconds. CPU system time: 0.01 seconds. Elapsed time: 0.02 seconds; current allocated memory: 165.933 MB.
INFO: [HLS 200-10] ----------------------------------------------------------------
INFO: [HLS 200-10] -- Generating RTL for module 'axi_slave_lite_reg' 
INFO: [HLS 200-10] ----------------------------------------------------------------
INFO: [RTGEN 206-500] Setting interface mode on port 'axi_slave_lite_reg/s_ar_araddr' to 'ap_none'.
INFO: [RTGEN 206-500] Setting interface mode on port 'axi_slave_lite_reg/s_ar_arprot' to 'ap_none'.
INFO: [RTGEN 206-500] Setting interface mode on port 'axi_slave_lite_reg/s_ar_arready' to 'ap_none'.
WARNING: [RTGEN 206-101] Port 's_ar_arready' with mode 'ap_none' may require an associated data valid signal to correctly communicate with other blocks or a test bench; automatic C/RTL co-simulation may not be able to verify such a port.
INFO: [RTGEN 206-500] Setting interface mode on port 'axi_slave_lite_reg/s_ar_arvalid' to 'ap_none'.
INFO: [RTGEN 206-500] Setting interface mode on port 'axi_slave_lite_reg/s_aw_awaddr' to 'ap_none'.
INFO: [RTGEN 206-500] Setting interface mode on port 'axi_slave_lite_reg/s_aw_awprot' to 'ap_none'.
INFO: [RTGEN 206-500] Setting interface mode on port 'axi_slave_lite_reg/s_aw_awready' to 'ap_none'.
WARNING: [RTGEN 206-101] Port 's_aw_awready' with mode 'ap_none' may require an associated data valid signal to correctly communicate with other blocks or a test bench; automatic C/RTL co-simulation may not be able to verify such a port.
==============================================================
Vitis HLS - High-Level Synthesis from C, C++ and OpenCL v2020.2 (64-bit)
Copyright 1986-2020 Xilinx, Inc. All Rights Reserved.
==============================================================
INFO: [SYN 201-201] Setting up clock 'default' with a period of 10ns.
INFO: [HLS 200-10] Setting target device to 'xczu19eg-ffvc1760-2-e'
INFO: [HLS 200-1505] Using flow_target 'vivado'
INFO: [HLS 200-1510] Running: set_part xczu19eg-ffvc1760-2-e 
INFO: [HLS 200-1510] Running: create_clock -period 10 -name default 
INFO: [HLS 200-1510] Running: set_directive_top -name axi_slave_lite_reg axi_slave_lite_reg 
INFO: [HLS 200-1510] Running: set_directive_protocol -mode fixed axi_slave_lite_reg/WAIT_FOR_READ 
INFO: [HLS 200-1510] Running: set_directive_protocol -mode fixed axi_slave_lite_reg/WAIT_FOR_BRESP 
